(0.000100) powertrain 200#0000000000000000
(0.000100) powertrain 201#0000000000000000
(0.000100) powertrain 202#01A00000
(0.020000) powertrain 400#0000190100000000
(0.020000) powertrain 401#401901000000
(0.020000) powertrain 402#00000000
(0.040000) powertrain 400#0000190100000000
(0.040000) powertrain 401#401901000000
(0.040000) powertrain 402#00000000
(0.060000) powertrain 400#0000190100000000
(0.060000) powertrain 401#401901000000
(0.060000) powertrain 402#00000000
(0.080000) powertrain 400#0000190100000000
(0.080000) powertrain 401#401901000000
(0.080000) powertrain 402#00000000
(0.100000) powertrain 400#0000190100000000
(0.100000) powertrain 401#401901000000
(0.100000) powertrain 402#00000000
(0.100000) powertrain 200#0000000001000000
(0.100000) powertrain 201#0000000000000000
(0.100000) powertrain 202#01A00000
(0.100300) powertrain 600#4019010000003200
(0.100300) powertrain 602#000000000000
(0.120000) powertrain 400#0000190100000000
(0.120000) powertrain 401#401901000000
(0.120000) powertrain 402#00000000
(0.140000) powertrain 400#0000190100000000
(0.140000) powertrain 401#401901000000
(0.140000) powertrain 402#00000000
(0.160000) powertrain 400#0000190100000000
(0.160000) powertrain 401#401901000000
(0.160000) powertrain 402#00000000
(0.180000) powertrain 400#0000190100000000
(0.180000) powertrain 401#401901000000
(0.180000) powertrain 402#00000000
(0.200000) powertrain 400#0000190100000000
(0.200000) powertrain 401#401901000000
(0.200000) powertrain 402#00000000
(0.200000) powertrain 500#00000000
(0.200000) powertrain 501#D8040000003E
(0.200000) powertrain 200#0000000002000000
(0.200000) powertrain 201#0000000000000000
(0.200000) powertrain 202#01A00000
(0.200015) powertrain 300#0000000000000000
(0.200300) powertrain 600#4019010000003201
(0.200300) powertrain 602#000000000000
(0.220000) powertrain 400#0000190100000000
(0.220000) powertrain 401#401901000000
(0.220000) powertrain 402#00000000
(0.240000) powertrain 400#0000190100000000
(0.240000) powertrain 401#401901000000
(0.240000) powertrain 402#00000000
(0.250300) powertrain 601#26022602FA00
(0.260000) powertrain 400#0000190100000000
(0.260000) powertrain 401#401901000000
(0.260000) powertrain 402#00000000
(0.280000) powertrain 400#0000190100000000
(0.280000) powertrain 401#401901000000
(0.280000) powertrain 402#00000000
(0.300000) powertrain 400#0000190100000000
(0.300000) powertrain 401#401901000000
(0.300000) powertrain 402#00000000
(0.300000) powertrain 200#0000000003000000
(0.300000) powertrain 201#0000000000000000
(0.300000) powertrain 202#01A00000
(0.300300) powertrain 600#4019010000003202
(0.300300) powertrain 602#000000000000
(0.320000) powertrain 400#0000190100000000
(0.320000) powertrain 401#401901000000
(0.320000) powertrain 402#00000000
(0.340000) powertrain 400#0000190100000000
(0.340000) powertrain 401#401901000000
(0.340000) powertrain 402#00000000
(0.360000) powertrain 400#0000190100000000
(0.360000) powertrain 401#401901000000
(0.360000) powertrain 402#00000000
(0.380000) powertrain 400#0000190100000000
(0.380000) powertrain 401#401901000000
(0.380000) powertrain 402#00000000
(0.400000) powertrain 400#0000190100000000
(0.400000) powertrain 401#401901000000
(0.400000) powertrain 402#00000000
(0.400000) powertrain 500#00000000
(0.400000) powertrain 501#D8040000003E
(0.400000) powertrain 200#0000000004000000
(0.400000) powertrain 201#0000000000000000
(0.400000) powertrain 202#01A00000
(0.400023) powertrain 300#0100000000000000
(0.400300) powertrain 600#4019010000003203
(0.400300) powertrain 602#000000000000
(0.420000) powertrain 400#0000190100000000
(0.420000) powertrain 401#401901000000
(0.420000) powertrain 402#00000000
(0.440000) powertrain 400#0000190100000000
(0.440000) powertrain 401#401901000000
(0.440000) powertrain 402#00000000
(0.460000) powertrain 400#0000190100000000
(0.460000) powertrain 401#401901000000
(0.460000) powertrain 402#00000000
(0.480000) powertrain 400#0000190100000000
(0.480000) powertrain 401#401901000000
(0.480000) powertrain 402#00000000
(0.500000) powertrain 400#0000190100000000
(0.500000) powertrain 401#401901000000
(0.500000) powertrain 402#00000000
(0.500000) powertrain 200#0000000005000000
(0.500000) powertrain 201#0000000000000000
(0.500000) powertrain 202#01A00000
(0.500026) powertrain 301#02A00000
(0.500300) powertrain 600#4019010000003204
(0.500300) powertrain 602#000000000000
(0.500300) powertrain 601#26022602FA00
(0.500300) powertrain 603#1F0E010E6200
(0.520000) powertrain 400#0000190100000000
(0.520000) powertrain 401#401901000000
(0.520000) powertrain 402#00000000
(0.540000) powertrain 400#0000190100000000
(0.540000) powertrain 401#401901000000
(0.540000) powertrain 402#00000000
(0.560000) powertrain 400#0000190100000000
(0.560000) powertrain 401#401901000000
(0.560000) powertrain 402#00000000
(0.580000) powertrain 400#0000190100000000
(0.580000) powertrain 401#401901000000
(0.580000) powertrain 402#00000000
(0.600000) powertrain 400#0000190100000000
(0.600000) powertrain 401#401901000000
(0.600000) powertrain 402#00000000
(0.600000) powertrain 500#00000000
(0.600000) powertrain 501#D8040000003E
(0.600000) powertrain 200#0000000006000000
(0.600000) powertrain 201#0000000000000000
(0.600000) powertrain 202#01A00000
(0.600030) powertrain 300#0200000000000000
(0.600300) powertrain 600#4019010000003205
(0.600300) powertrain 602#000000000100
(0.620000) powertrain 400#0000190100000000
(0.620000) powertrain 401#401901000000
(0.620000) powertrain 402#00000000
(0.640000) powertrain 400#0000190100000000
(0.640000) powertrain 401#401901000000
(0.640000) powertrain 402#00000000
(0.660000) powertrain 400#0000190100000000
(0.660000) powertrain 401#401901000000
(0.660000) powertrain 402#00000000
(0.680000) powertrain 400#0000190100000000
(0.680000) powertrain 401#401901000000
(0.680000) powertrain 402#00000000
(0.700000) powertrain 400#0000190100000000
(0.700000) powertrain 401#401901000000
(0.700000) powertrain 402#00000000
(0.700000) powertrain 200#0000000007000000
(0.700000) powertrain 201#0000000000000000
(0.700000) powertrain 202#01A00000
(0.700400) powertrain 604#0100000000000000
(0.700400) powertrain 600#4019010000003206
(0.700400) powertrain 602#000000000000
(0.720000) powertrain 400#0000190100000000
(0.720000) powertrain 401#401901000000
(0.720000) powertrain 402#00000000
(0.740000) powertrain 400#0000190100000000
(0.740000) powertrain 401#401901000000
(0.740000) powertrain 402#00000000
(0.750300) powertrain 601#27022702FA00
(0.760000) powertrain 400#0000190100000000
(0.760000) powertrain 401#401901000000
(0.760000) powertrain 402#00000000
(0.780000) powertrain 400#0000190100000000
(0.780000) powertrain 401#401901000000
(0.780000) powertrain 402#00000000
(0.800000) powertrain 400#0000190100000000
(0.800000) powertrain 401#401901000000
(0.800000) powertrain 402#00000000
(0.800000) powertrain 500#00000000
(0.800000) powertrain 501#D8040000003E
(0.800000) powertrain 200#0000000008000000
(0.800000) powertrain 201#0000000000000000
(0.800000) powertrain 202#01A00000
(0.800037) powertrain 300#03D01A0110270000
(0.800300) powertrain 600#4019010000003207
(0.800300) powertrain 602#000000000000
(0.820000) powertrain 400#0000190100000000
(0.820000) powertrain 401#401901000000
(0.820000) powertrain 402#00000000
(0.840000) powertrain 400#0000190100000000
(0.840000) powertrain 401#401901000000
(0.840000) powertrain 402#00000000
(0.860000) powertrain 400#0000190100000000
(0.860000) powertrain 401#401901000000
(0.860000) powertrain 402#00000000
(0.880000) powertrain 400#0000190100000000
(0.880000) powertrain 401#401901000000
(0.880000) powertrain 402#00000000
(0.900000) powertrain 400#0000190100000000
(0.900000) powertrain 401#401901000000
(0.900000) powertrain 402#00000000
(0.900000) powertrain 200#0000000009000000
(0.900000) powertrain 201#0000000000000000
(0.900000) powertrain 202#01A00000
(0.900300) powertrain 600#4019010000003208
(0.900300) powertrain 602#000000000000
(0.920000) powertrain 400#0000190100000000
(0.920000) powertrain 401#401901000000
(0.920000) powertrain 402#00000000
(0.940000) powertrain 400#0000190100000000
(0.940000) powertrain 401#401901000000
(0.940000) powertrain 402#00000000
(0.960000) powertrain 400#0000190100000000
(0.960000) powertrain 401#401901000000
(0.960000) powertrain 402#00000000
(0.980000) powertrain 400#0000190100000000
(0.980000) powertrain 401#401901000000
(0.980000) powertrain 402#00000000
(1.000000) powertrain 400#0000190100000000
(1.000000) powertrain 401#401901000000
(1.000000) powertrain 402#00000000
(1.000000) powertrain 500#00000000
(1.000000) powertrain 501#D8040000003E
(1.000000) powertrain 610#0000000000000000
(1.000000) powertrain 200#000000000A000000
(1.000000) powertrain 201#0000000000000000
(1.000000) powertrain 202#01A00000
(1.000045) powertrain 300#03F01D0110270000
(1.000045) powertrain 301#02A00000
(1.000300) powertrain 600#4019010000003209
(1.000300) powertrain 602#000000000000
(1.000300) powertrain 601#27022702FA00
(1.000300) powertrain 603#1F0E010E6200
(1.000300) powertrain 604#0101000000000000
(1.020000) powertrain 400#0000190100000000
(1.020000) powertrain 401#401901000000
(1.020000) powertrain 402#00000000
(1.040000) powertrain 400#0000190100000000
(1.040000) powertrain 401#401901000000
(1.040000) powertrain 402#00000000
(1.060000) powertrain 400#0000190100000000
(1.060000) powertrain 401#401901000000
(1.060000) powertrain 402#00000000
(1.080000) powertrain 400#0000190100000000
(1.080000) powertrain 401#401901000000
(1.080000) powertrain 402#00000000
(1.100000) powertrain 400#0000190100000000
(1.100000) powertrain 401#401901000000
(1.100000) powertrain 402#00000000
(1.100000) powertrain 200#000000000B000000
(1.100000) powertrain 201#0000000000000000
(1.100000) powertrain 202#01A00000
(1.100300) powertrain 600#401901000000320A
(1.100400) powertrain 602#000000000000
(1.120000) powertrain 400#0000190100000000
(1.120000) powertrain 401#401901000000
(1.120000) powertrain 402#00000000
(1.140000) powertrain 400#0000190100000000
(1.140000) powertrain 401#401901000000
(1.140000) powertrain 402#00000000
(1.160000) powertrain 400#0000190100000000
(1.160000) powertrain 401#401901000000
(1.160000) powertrain 402#00000000
(1.180000) powertrain 400#0000190100000000
(1.180000) powertrain 401#401901000000
(1.180000) powertrain 402#00000000
(1.200000) powertrain 400#0000190100000000
(1.200000) powertrain 401#401901000000
(1.200000) powertrain 402#00000000
(1.200000) powertrain 500#00000000
(1.200000) powertrain 501#D8040000003E
(1.200000) powertrain 200#000000000C000000
(1.200000) powertrain 201#0000000000000000
(1.200000) powertrain 202#01A00000
(1.200052) powertrain 300#0310210110270000
(1.200300) powertrain 600#401901000000320B
(1.200400) powertrain 602#000000000000
(1.220000) powertrain 400#0000190100000000
(1.220000) powertrain 401#401901000000
(1.220000) powertrain 402#00000000
(1.240000) powertrain 400#0000190100000000
(1.240000) powertrain 401#401901000000
(1.240000) powertrain 402#00000000
(1.250300) powertrain 601#FA002702FA00
(1.260000) powertrain 400#0000190100000000
(1.260000) powertrain 401#401901000000
(1.260000) powertrain 402#00000000
(1.280000) powertrain 400#0000190100000000
(1.280000) powertrain 401#401901000000
(1.280000) powertrain 402#00000000
(1.300000) powertrain 400#0000190100000000
(1.300000) powertrain 401#401901000000
(1.300000) powertrain 402#00000000
(1.300000) powertrain 200#000000000D000000
(1.300000) powertrain 201#0000000000000000
(1.300000) powertrain 202#01A00000
(1.300300) powertrain 600#401901000000320C
(1.300400) powertrain 602#000000000000
(1.320000) powertrain 400#0000190100000000
(1.320000) powertrain 401#401901000000
(1.320000) powertrain 402#00000000
(1.340000) powertrain 400#0000190100000000
(1.340000) powertrain 401#401901000000
(1.340000) powertrain 402#00000000
(1.360000) powertrain 400#0000190100000000
(1.360000) powertrain 401#401901000000
(1.360000) powertrain 402#00000000
(1.380000) powertrain 400#0000190100000000
(1.380000) powertrain 401#401901000000
(1.380000) powertrain 402#00000000
(1.400000) powertrain 400#0000190100000000
(1.400000) powertrain 401#401901000000
(1.400000) powertrain 402#00000000
(1.400000) powertrain 500#00000000
(1.400000) powertrain 501#D8040000003E
(1.400000) powertrain 200#000000000E000000
(1.400000) powertrain 201#0000000000000000
(1.400000) powertrain 202#01A00000
(1.400059) powertrain 300#0330240110270000
(1.400300) powertrain 600#401901000000320D
(1.400400) powertrain 602#000000000000
(1.420000) powertrain 400#0000190100000000
(1.420000) powertrain 401#401901000000
(1.420000) powertrain 402#00000000
(1.440000) powertrain 400#0000190100000000
(1.440000) powertrain 401#401901000000
(1.440000) powertrain 402#00000000
(1.460000) powertrain 400#0000190100000000
(1.460000) powertrain 401#401901000000
(1.460000) powertrain 402#00000000
(1.480000) powertrain 400#0000190100000000
(1.480000) powertrain 401#401901000000
(1.480000) powertrain 402#00000000
(1.500000) powertrain 400#0000190100000000
(1.500000) powertrain 401#401901000000
(1.500000) powertrain 402#00000000
(1.500000) powertrain 200#000000000F000000
(1.500000) powertrain 201#0000000000000000
(1.500000) powertrain 202#01A00000
(1.500063) powertrain 301#02A00000
(1.500300) powertrain 600#401901000000320E
(1.500400) powertrain 602#000000000000
(1.500500) powertrain 601#FA002702FA00
(1.500600) powertrain 603#1F0E010E6200
(1.500700) powertrain 604#0102000000000000
(1.520000) powertrain 400#0000190100000000
(1.520000) powertrain 401#401901000000
(1.520000) powertrain 402#00000000
(1.540000) powertrain 400#0000190100000000
(1.540000) powertrain 401#401901000000
(1.540000) powertrain 402#00000000
(1.560000) powertrain 400#0000190100000000
(1.560000) powertrain 401#401901000000
(1.560000) powertrain 402#00000000
(1.580000) powertrain 400#0000190100000000
(1.580000) powertrain 401#401901000000
(1.580000) powertrain 402#00000000
(1.600000) powertrain 400#0000190100000000
(1.600000) powertrain 401#401901000000
(1.600000) powertrain 402#00000000
(1.600000) powertrain 500#00000000
(1.600000) powertrain 501#D8040000003E
(1.600000) powertrain 200#0000000010000000
(1.600000) powertrain 201#0000000000000000
(1.600000) powertrain 202#01A00000
(1.600067) powertrain 300#0350270110270000
(1.600300) powertrain 600#401901000000320F
(1.600400) powertrain 602#000000000000
(1.620000) powertrain 400#0000190100000000
(1.620000) powertrain 401#401901000000
(1.620000) powertrain 402#00000000
(1.640000) powertrain 400#0000190100000000
(1.640000) powertrain 401#401901000000
(1.640000) powertrain 402#00000000
