(0.000100) powertrain 200#0000000000000000
(0.000100) powertrain 201#0000000000000000
(0.000100) powertrain 202#01A00000
(0.020000) powertrain 400#0000190100000000
(0.020000) powertrain 401#401901000000
(0.020000) powertrain 402#00000000
(0.040000) powertrain 400#0000190100000000
(0.040000) powertrain 401#401901000000
(0.040000) powertrain 402#00000000
(0.060000) powertrain 400#0000190100000000
(0.060000) powertrain 401#401901000000
(0.060000) powertrain 402#00000000
(0.080000) powertrain 400#0000190100000000
(0.080000) powertrain 401#401901000000
(0.080000) powertrain 402#00000000
(0.100000) powertrain 400#0000190100000000
(0.100000) powertrain 401#401901000000
(0.100000) powertrain 402#00000000
(0.100000) powertrain 200#0000000001000000
(0.100000) powertrain 201#0000000000000000
(0.100000) powertrain 202#01A00000
(0.100300) powertrain 600#4019010000003200
(0.100300) powertrain 602#000000000000
(0.120000) powertrain 400#0000190100000000
(0.120000) powertrain 401#401901000000
(0.120000) powertrain 402#00000000
(0.140000) powertrain 400#0000190100000000
(0.140000) powertrain 401#401901000000
(0.140000) powertrain 402#00000000
(0.160000) powertrain 400#0000190100000000
(0.160000) powertrain 401#401901000000
(0.160000) powertrain 402#00000000
(0.180000) powertrain 400#0000190100000000
(0.180000) powertrain 401#401901000000
(0.180000) powertrain 402#00000000
(0.200000) powertrain 400#0000190100000000
(0.200000) powertrain 401#401901000000
(0.200000) powertrain 402#00000000
(0.200000) powertrain 500#00000000
(0.200000) powertrain 501#D8040000003E
(0.200000) powertrain 200#0000000002000000
(0.200000) powertrain 201#0000000000000000
(0.200000) powertrain 202#01A00000
(0.200015) powertrain 300#0000000000000000
(0.200300) powertrain 600#4019010000003201
(0.200300) powertrain 602#000000000000
(0.220000) powertrain 400#0000190100000000
(0.220000) powertrain 401#401901000000
(0.220000) powertrain 402#00000000
(0.240000) powertrain 400#0000190100000000
(0.240000) powertrain 401#401901000000
(0.240000) powertrain 402#00000000
(0.250300) powertrain 601#FA00FA00FA00
(0.260000) powertrain 400#0000190100000000
(0.260000) powertrain 401#401901000000
(0.260000) powertrain 402#00000000
(0.280000) powertrain 400#0000190100000000
(0.280000) powertrain 401#401901000000
(0.280000) powertrain 402#00000000
(0.300000) powertrain 400#0000190100000000
(0.300000) powertrain 401#401901000000
(0.300000) powertrain 402#00000000
(0.300000) powertrain 200#0000000003000000
(0.300000) powertrain 201#0000000000000000
(0.300000) powertrain 202#01A00000
(0.300300) powertrain 600#5FEA000000000002
(0.300300) powertrain 602#000000000000
(0.320000) powertrain 400#0000190100000000
(0.320000) powertrain 401#401901000000
(0.320000) powertrain 402#00000000
(0.340000) powertrain 400#0000190100000000
(0.340000) powertrain 401#401901000000
(0.340000) powertrain 402#00000000
(0.360000) powertrain 400#0000190100000000
(0.360000) powertrain 401#401901000000
(0.360000) powertrain 402#00000000
(0.380000) powertrain 400#0000190100000000
(0.380000) powertrain 401#401901000000
(0.380000) powertrain 402#00000000
(0.400000) powertrain 400#0000190100000000
(0.400000) powertrain 401#401901000000
(0.400000) powertrain 402#00000000
(0.400000) powertrain 500#00000000
(0.400000) powertrain 501#D8040000003E
(0.400000) powertrain 200#0000000004000000
(0.400000) powertrain 201#0000000000000000
(0.400000) powertrain 202#01A00000
(0.400023) powertrain 300#0000000000000000
(0.400300) powertrain 600#5FEA000000000003
(0.400300) powertrain 602#000000000000
(0.420000) powertrain 400#0000190100000000
(0.420000) powertrain 401#401901000000
(0.420000) powertrain 402#00000000
(0.440000) powertrain 400#0000190100000000
(0.440000) powertrain 401#401901000000
(0.440000) powertrain 402#00000000
(0.460000) powertrain 400#0000190100000000
(0.460000) powertrain 401#401901000000
(0.460000) powertrain 402#00000000
(0.480000) powertrain 400#0000190100000000
(0.480000) powertrain 401#401901000000
(0.480000) powertrain 402#00000000
(0.500000) powertrain 400#0000190100000000
(0.500000) powertrain 401#401901000000
(0.500000) powertrain 402#00000000
(0.500000) powertrain 200#0000000005000000
(0.500000) powertrain 201#0000000000000000
(0.500000) powertrain 202#01A00000
(0.500026) powertrain 301#02A00000
(0.500300) powertrain 600#5FEA000000000004
(0.500300) powertrain 602#000000000000
(0.500300) powertrain 601#FA00FA00FA00
(0.500300) powertrain 603#C60BA80B6200
(0.520000) powertrain 400#0000190100000000
(0.520000) powertrain 401#401901000000
(0.520000) powertrain 402#00000000
(0.540000) powertrain 400#0000190100000000
(0.540000) powertrain 401#401901000000
(0.540000) powertrain 402#00000000
(0.560000) powertrain 400#0000190100000000
(0.560000) powertrain 401#401901000000
(0.560000) powertrain 402#00000000
(0.580000) powertrain 400#0000190100000000
(0.580000) powertrain 401#401901000000
(0.580000) powertrain 402#00000000
(0.600000) powertrain 400#0000190100000000
(0.600000) powertrain 401#401901000000
(0.600000) powertrain 402#00000000
(0.600000) powertrain 500#00000000
(0.600000) powertrain 501#D8040000003E
(0.600000) powertrain 200#0000000006000000
(0.600000) powertrain 201#0000000000000000
(0.600000) powertrain 202#01A00000
(0.600030) powertrain 300#0000000000000000
(0.600300) powertrain 600#5FEA000000000005
(0.600300) powertrain 602#000000000000
(0.620000) powertrain 400#0000190100000000
(0.620000) powertrain 401#401901000000
(0.620000) powertrain 402#00000000
(0.640000) powertrain 400#0000190100000000
(0.640000) powertrain 401#401901000000
(0.640000) powertrain 402#00000000
(0.660000) powertrain 400#0000190100000000
(0.660000) powertrain 401#401901000000
(0.660000) powertrain 402#00000000
(0.680000) powertrain 400#0000190100000000
(0.680000) powertrain 401#401901000000
(0.680000) powertrain 402#00000000
(0.700000) powertrain 400#0000190100000000
(0.700000) powertrain 401#401901000000
(0.700000) powertrain 402#00000000
(0.700000) powertrain 200#0000000007000000
(0.700000) powertrain 201#0000000000000000
(0.700000) powertrain 202#01A00000
(0.700300) powertrain 600#5FEA000000000006
(0.700300) powertrain 602#000000000000
(0.720000) powertrain 400#0000190100000000
(0.720000) powertrain 401#401901000000
(0.720000) powertrain 402#00000000
(0.740000) powertrain 400#0000190100000000
(0.740000) powertrain 401#401901000000
(0.740000) powertrain 402#00000000
(0.750300) powertrain 601#FA00FA00FA00
(0.760000) powertrain 400#0000190100000000
(0.760000) powertrain 401#401901000000
(0.760000) powertrain 402#00000000
(0.780000) powertrain 400#0000190100000000
(0.780000) powertrain 401#401901000000
(0.780000) powertrain 402#00000000
(0.800000) powertrain 400#0000190100000000
(0.800000) powertrain 401#401901000000
(0.800000) powertrain 402#00000000
(0.800000) powertrain 500#00000000
(0.800000) powertrain 501#D8040000003E
(0.800000) powertrain 200#0000000008000000
(0.800000) powertrain 201#0000000000000000
(0.800000) powertrain 202#01A00000
(0.800037) powertrain 300#0000000000000000
(0.800300) powertrain 600#5FEA000000000007
(0.800300) powertrain 602#000000000000
(0.820000) powertrain 400#0000190100000000
(0.820000) powertrain 401#401901000000
(0.820000) powertrain 402#00000000
(0.840000) powertrain 400#0000190100000000
(0.840000) powertrain 401#401901000000
(0.840000) powertrain 402#00000000
(0.860000) powertrain 400#0000190100000000
(0.860000) powertrain 401#401901000000
(0.860000) powertrain 402#00000000
(0.880000) powertrain 400#0000190100000000
(0.880000) powertrain 401#401901000000
(0.880000) powertrain 402#00000000
(0.900000) powertrain 400#0000190100000000
(0.900000) powertrain 401#401901000000
(0.900000) powertrain 402#00000000
(0.900000) powertrain 200#0000000009000000
(0.900000) powertrain 201#0000000000000000
(0.900000) powertrain 202#01A00000
(0.900300) powertrain 600#5FEA000000000008
(0.900300) powertrain 602#000000000000
(0.920000) powertrain 400#0000190100000000
(0.920000) powertrain 401#401901000000
(0.920000) powertrain 402#00000000
(0.940000) powertrain 400#0000190100000000
(0.940000) powertrain 401#401901000000
(0.940000) powertrain 402#00000000
(0.960000) powertrain 400#0000190100000000
(0.960000) powertrain 401#401901000000
(0.960000) powertrain 402#00000000
(0.980000) powertrain 400#0000190100000000
(0.980000) powertrain 401#401901000000
(0.980000) powertrain 402#00000000
(1.000000) powertrain 400#0000190100000000
(1.000000) powertrain 401#401901000000
(1.000000) powertrain 402#00000000
(1.000000) powertrain 500#00000000
(1.000000) powertrain 501#D8040000003E
(1.000000) powertrain 610#0000000000000000
(1.000000) powertrain 200#000000000A000000
(1.000000) powertrain 201#0000000000000000
(1.000000) powertrain 202#01A00000
(1.000045) powertrain 300#0000000000000000
(1.000045) powertrain 301#02A00000
(1.000300) powertrain 600#5FEA000000000009
(1.000300) powertrain 602#000000000000
(1.000300) powertrain 601#FA00FA00FA00
(1.000300) powertrain 603#C60BA80B6200
(1.020000) powertrain 400#0000190100000000
(1.020000) powertrain 401#401901000000
(1.020000) powertrain 402#00000000
(1.040000) powertrain 400#0000190100000000
(1.040000) powertrain 401#401901000000
(1.040000) powertrain 402#00000000
(1.060000) powertrain 400#0000190100000000
(1.060000) powertrain 401#401901000000
(1.060000) powertrain 402#00000000
(1.080000) powertrain 400#0000190100000000
(1.080000) powertrain 401#401901000000
(1.080000) powertrain 402#00000000
(1.100000) powertrain 400#0000190100000000
(1.100000) powertrain 401#401901000000
(1.100000) powertrain 402#00000000
(1.100000) powertrain 200#000000000B000000
(1.100000) powertrain 201#0000000000000000
(1.100000) powertrain 202#01A00000
(1.100300) powertrain 600#5FEA00000000000A
(1.100300) powertrain 602#000000000000
(1.120000) powertrain 400#0000190100000000
(1.120000) powertrain 401#401901000000
(1.120000) powertrain 402#00000000
(1.140000) powertrain 400#0000190100000000
(1.140000) powertrain 401#401901000000
(1.140000) powertrain 402#00000000
(1.160000) powertrain 400#0000190100000000
(1.160000) powertrain 401#401901000000
(1.160000) powertrain 402#00000000
(1.180000) powertrain 400#0000190100000000
(1.180000) powertrain 401#401901000000
(1.180000) powertrain 402#00000000
(1.200000) powertrain 400#0000190100000000
(1.200000) powertrain 401#401901000000
(1.200000) powertrain 402#00000000
(1.200000) powertrain 500#00000000
(1.200000) powertrain 501#D8040000003E
(1.200000) powertrain 200#000000000C000000
(1.200000) powertrain 201#0000000000000000
(1.200000) powertrain 202#01A00000
(1.200052) powertrain 300#0000000000000000
(1.200300) powertrain 600#5FEA00000000000B
(1.200300) powertrain 602#000000000000
(1.220000) powertrain 400#0000190100000000
(1.220000) powertrain 401#401901000000
(1.220000) powertrain 402#00000000
(1.240000) powertrain 400#0000190100000000
(1.240000) powertrain 401#401901000000
(1.240000) powertrain 402#00000000
(1.250300) powertrain 601#FA00FA00FA00
(1.260000) powertrain 400#0000190100000000
(1.260000) powertrain 401#401901000000
(1.260000) powertrain 402#00000000
(1.280000) powertrain 400#0000190100000000
(1.280000) powertrain 401#401901000000
(1.280000) powertrain 402#00000000
(1.300000) powertrain 400#0000190100000000
(1.300000) powertrain 401#401901000000
(1.300000) powertrain 402#00000000
(1.300000) powertrain 200#000000000D000000
(1.300000) powertrain 201#0000000000000000
(1.300000) powertrain 202#01A00000
(1.300300) powertrain 600#5FEA00000000000C
(1.300300) powertrain 602#000000000000
(1.320000) powertrain 400#0000190100000000
(1.320000) powertrain 401#401901000000
(1.320000) powertrain 402#00000000
(1.340000) powertrain 400#0000190100000000
(1.340000) powertrain 401#401901000000
(1.340000) powertrain 402#00000000
(1.360000) powertrain 400#0000190100000000
(1.360000) powertrain 401#401901000000
(1.360000) powertrain 402#00000000
(1.380000) powertrain 400#0000190100000000
(1.380000) powertrain 401#401901000000
(1.380000) powertrain 402#00000000
(1.400000) powertrain 400#0000190100000000
(1.400000) powertrain 401#401901000000
(1.400000) powertrain 402#00000000
(1.400000) powertrain 500#00000000
(1.400000) powertrain 501#D8040000003E
(1.400000) powertrain 200#023002460E000000
(1.400000) powertrain 201#A401020000000000
(1.400000) powertrain 202#00000000
(1.400060) powertrain 300#0000000000000000
(1.400300) powertrain 600#401901000000320D
(1.400300) powertrain 602#000000000100
(1.420000) powertrain 400#0000190100000000
(1.420000) powertrain 401#401901000000
(1.420000) powertrain 402#00000000
(1.440000) powertrain 400#0000190100000000
(1.440000) powertrain 401#401901000000
(1.440000) powertrain 402#00000000
(1.460000) powertrain 400#0000190100000000
(1.460000) powertrain 401#401901000000
(1.460000) powertrain 402#00000000
(1.480000) powertrain 400#0000190100000000
(1.480000) powertrain 401#401901000000
(1.480000) powertrain 402#00000000
(1.500000) powertrain 400#0000190100000000
(1.500000) powertrain 401#401901000000
(1.500000) powertrain 402#00000000
(1.500000) powertrain 200#0258024B0F000000
(1.500000) powertrain 201#C201020000000000
(1.500000) powertrain 202#00000000
(1.500063) powertrain 301#02A00000
(1.500300) powertrain 600#401901000000320E
(1.500300) powertrain 602#000000000100
(1.500300) powertrain 601#FA00FA00FA00
(1.500300) powertrain 603#1F0E010E6200
(1.520000) powertrain 400#0000190100000000
(1.520000) powertrain 401#401901000000
(1.520000) powertrain 402#00000000
(1.540000) powertrain 400#0000190100000000
(1.540000) powertrain 401#401901000000
(1.540000) powertrain 402#00000000
(1.560000) powertrain 400#0000190100000000
(1.560000) powertrain 401#401901000000
(1.560000) powertrain 402#00000000
(1.580000) powertrain 400#0000190100000000
(1.580000) powertrain 401#401901000000
(1.580000) powertrain 402#00000000
(1.600000) powertrain 400#0000190100000000
(1.600000) powertrain 401#401901000000
(1.600000) powertrain 402#00000000
(1.600000) powertrain 500#00000000
(1.600000) powertrain 501#D8040000003E
(1.600000) powertrain 200#0280025010000000
(1.600000) powertrain 201#E001020000000000
(1.600000) powertrain 202#00000000
(1.600067) powertrain 300#0000000000000000
(1.600300) powertrain 600#401901000000320F
(1.600300) powertrain 602#DC052C010200
(1.620000) powertrain 400#0000190100000000
(1.620000) powertrain 401#401901000000
(1.620000) powertrain 402#00000000
(1.640000) powertrain 400#0000190100000000
(1.640000) powertrain 401#401901000000
(1.640000) powertrain 402#00000000
(1.660000) powertrain 400#0000190100000000
(1.660000) powertrain 401#401901000000
(1.660000) powertrain 402#00000000
(1.680000) powertrain 400#0000190100000000
(1.680000) powertrain 401#401901000000
(1.680000) powertrain 402#00000000
(1.700000) powertrain 400#0000190100000000
(1.700000) powertrain 401#401901000000
(1.700000) powertrain 402#00000000
(1.700000) powertrain 200#02A8025511000000
(1.700000) powertrain 201#FE01020000000000
(1.700000) powertrain 202#00000000
(1.700300) powertrain 600#4019010000003210
(1.700300) powertrain 602#DC052C010200
(1.720000) powertrain 400#0000190100000000
(1.720000) powertrain 401#401901000000
(1.720000) powertrain 402#00000000
(1.740000) powertrain 400#0000190100000000
(1.740000) powertrain 401#401901000000
(1.740000) powertrain 402#00000000
(1.750300) powertrain 601#FA00FA00FA00
(1.760000) powertrain 400#0000190100000000
(1.760000) powertrain 401#401901000000
(1.760000) powertrain 402#00000000
(1.780000) powertrain 400#0000190100000000
(1.780000) powertrain 401#401901000000
(1.780000) powertrain 402#00000000
(1.800000) powertrain 400#0000190100000000
(1.800000) powertrain 401#401901000000
(1.800000) powertrain 402#00000000
(1.800000) powertrain 500#00000000
(1.800000) powertrain 501#D8040000003E
(1.800000) powertrain 200#02D0025A12000000
(1.800000) powertrain 201#1C02020000000000
(1.800000) powertrain 202#00000000
(1.800074) powertrain 300#0000000000000000
(1.800300) powertrain 600#4019010000003211
(1.800300) powertrain 602#DC052C010200
(1.820000) powertrain 400#0000190100000000
(1.820000) powertrain 401#401901000000
(1.820000) powertrain 402#00000000
(1.840000) powertrain 400#0000190100000000
(1.840000) powertrain 401#401901000000
(1.840000) powertrain 402#00000000
(1.860000) powertrain 400#0000190100000000
(1.860000) powertrain 401#401901000000
(1.860000) powertrain 402#00000000
(1.880000) powertrain 400#0000190100000000
(1.880000) powertrain 401#401901000000
(1.880000) powertrain 402#00000000
(1.900000) powertrain 400#0000190100000000
(1.900000) powertrain 401#401901000000
(1.900000) powertrain 402#00000000
(1.900000) powertrain 200#02F8025F13000000
(1.900000) powertrain 201#3A02020000000000
(1.900000) powertrain 202#00000000
(1.900300) powertrain 600#4019010000003212
(1.900300) powertrain 602#DC052C010200
(1.920000) powertrain 400#0000190100000000
(1.920000) powertrain 401#401901000000
(1.920000) powertrain 402#00000000
(1.940000) powertrain 400#0000190100000000
(1.940000) powertrain 401#401901000000
(1.940000) powertrain 402#00000000
(1.960000) powertrain 400#0000190100000000
(1.960000) powertrain 401#401901000000
(1.960000) powertrain 402#00000000
(1.980000) powertrain 400#0000190100000000
(1.980000) powertrain 401#401901000000
(1.980000) powertrain 402#00000000
(2.000000) powertrain 400#0000190100000000
(2.000000) powertrain 401#401901000000
(2.000000) powertrain 402#00000000
(2.000000) powertrain 500#00000000
(2.000000) powertrain 501#D8040000003E
(2.000000) powertrain 610#0000000000000000
(2.000000) powertrain 200#0200000014000000
(2.000000) powertrain 201#0000022800000000
(2.000000) powertrain 202#00000000
(2.000082) powertrain 300#0000000000000000
(2.000100) powertrain 301#02A00000
(2.000300) powertrain 600#4019010000003213
(2.000300) powertrain 602#DC052C010200
(2.000300) powertrain 601#FA00FA00FA00
(2.000300) powertrain 603#1F0E010E6200
(2.020000) powertrain 400#0000190100000000
(2.020000) powertrain 401#401901000000
(2.020000) powertrain 402#00000000
(2.040000) powertrain 400#0000190100000000
(2.040000) powertrain 401#401901000000
(2.040000) powertrain 402#00000000
(2.060000) powertrain 400#0000190100000000
(2.060000) powertrain 401#401901000000
(2.060000) powertrain 402#00000000
(2.080000) powertrain 400#0000190100000000
(2.080000) powertrain 401#401901000000
(2.080000) powertrain 402#00000000
(2.100000) powertrain 400#0000190100000000
(2.100000) powertrain 401#401901000000
(2.100000) powertrain 402#00000000
(2.100000) powertrain 200#0228000515000000
(2.100000) powertrain 201#1E00020000000000
(2.100000) powertrain 202#00000000
(2.100300) powertrain 600#4019010000003214
(2.100300) powertrain 602#DC052C010200
(2.120000) powertrain 400#0000190100000000
(2.120000) powertrain 401#401901000000
(2.120000) powertrain 402#00000000
(2.140000) powertrain 400#0000190100000000
(2.140000) powertrain 401#401901000000
(2.140000) powertrain 402#00000000
(2.160000) powertrain 400#0000190100000000
(2.160000) powertrain 401#401901000000
(2.160000) powertrain 402#00000000
(2.180000) powertrain 400#0000190100000000
(2.180000) powertrain 401#401901000000
(2.180000) powertrain 402#00000000
(2.200000) powertrain 400#0000190100000000
(2.200000) powertrain 401#401901000000
(2.200000) powertrain 402#00000000
(2.200000) powertrain 500#00000000
(2.200000) powertrain 501#D8040000003E
(2.200000) powertrain 200#0250000A16000000
(2.200000) powertrain 201#3C00020000000000
(2.200000) powertrain 202#00000000
(2.200100) powertrain 300#0000000000000000
(2.200400) powertrain 604#0300000000000000
(2.200400) powertrain 600#5FEA000000000015
(2.200400) powertrain 602#000000000000
(2.220000) powertrain 400#0000190100000000
(2.220000) powertrain 401#401901000000
(2.220000) powertrain 402#00000000
(2.240000) powertrain 400#0000190100000000
(2.240000) powertrain 401#401901000000
(2.240000) powertrain 402#00000000
(2.250300) powertrain 601#FA00FA00FA00
(2.260000) powertrain 400#0000190100000000
(2.260000) powertrain 401#401901000000
(2.260000) powertrain 402#00000000
(2.280000) powertrain 400#0000190100000000
(2.280000) powertrain 401#401901000000
(2.280000) powertrain 402#00000000
(2.300000) powertrain 400#0000190100000000
(2.300000) powertrain 401#401901000000
(2.300000) powertrain 402#00000000
(2.300000) powertrain 200#0278000F17000000
(2.300000) powertrain 201#5A00020000000000
(2.300000) powertrain 202#00000000
(2.300300) powertrain 600#5FEA000000000016
(2.300300) powertrain 602#000000000000
(2.320000) powertrain 400#0000190100000000
(2.320000) powertrain 401#401901000000
(2.320000) powertrain 402#00000000
(2.340000) powertrain 400#0000190100000000
(2.340000) powertrain 401#401901000000
(2.340000) powertrain 402#00000000
(2.360000) powertrain 400#0000190100000000
(2.360000) powertrain 401#401901000000
(2.360000) powertrain 402#00000000
(2.380000) powertrain 400#0000190100000000
(2.380000) powertrain 401#401901000000
(2.380000) powertrain 402#00000000
(2.400000) powertrain 400#0000190100000000
(2.400000) powertrain 401#401901000000
(2.400000) powertrain 402#00000000
(2.400000) powertrain 500#00000000
(2.400000) powertrain 501#D8040000003E
(2.400000) powertrain 200#02A0001418000000
(2.400000) powertrain 201#7800020000000000
(2.400000) powertrain 202#00000000
(2.400100) powertrain 300#0000000000000000
(2.400300) powertrain 600#5FEA000000000017
(2.400300) powertrain 602#000000000000
(2.420000) powertrain 400#0000190100000000
(2.420000) powertrain 401#401901000000
(2.420000) powertrain 402#00000000
(2.440000) powertrain 400#0000190100000000
(2.440000) powertrain 401#401901000000
(2.440000) powertrain 402#00000000
(2.460000) powertrain 400#0000190100000000
(2.460000) powertrain 401#401901000000
(2.460000) powertrain 402#00000000
(2.480000) powertrain 400#0000190100000000
(2.480000) powertrain 401#401901000000
(2.480000) powertrain 402#00000000
(2.500000) powertrain 400#0000190100000000
(2.500000) powertrain 401#401901000000
(2.500000) powertrain 402#00000000
(2.500000) powertrain 200#02C8001919000000
(2.500000) powertrain 201#9600020000000000
(2.500000) powertrain 202#00000000
(2.500100) powertrain 301#02A00000
(2.500300) powertrain 600#4019010000003218
(2.500300) powertrain 602#000000000000
(2.500300) powertrain 601#FA00FA00FA00
(2.500300) powertrain 603#1F0E010E6200
(2.500300) powertrain 604#0301000000000000
(2.520000) powertrain 400#0000190100000000
(2.520000) powertrain 401#401901000000
(2.520000) powertrain 402#00000000
(2.540000) powertrain 400#0000190100000000
(2.540000) powertrain 401#401901000000
(2.540000) powertrain 402#00000000
(2.560000) powertrain 400#0000190100000000
(2.560000) powertrain 401#401901000000
(2.560000) powertrain 402#00000000
(2.580000) powertrain 400#0000190100000000
(2.580000) powertrain 401#401901000000
(2.580000) powertrain 402#00000000
(2.600000) powertrain 400#0000190100000000
(2.600000) powertrain 401#401901000000
(2.600000) powertrain 402#00000000
(2.600000) powertrain 500#00000000
(2.600000) powertrain 501#D8040000003E
(2.600000) powertrain 200#02F0001E1A000000
(2.600000) powertrain 201#B400020000000000
(2.600000) powertrain 202#00000000
(2.600104) powertrain 300#0000000000000000
(2.600300) powertrain 600#4019010000003219
(2.600400) powertrain 602#000000000000
(2.620000) powertrain 400#0000190100000000
(2.620000) powertrain 401#401901000000
(2.620000) powertrain 402#00000000
(2.640000) powertrain 400#0000190100000000
(2.640000) powertrain 401#401901000000
(2.640000) powertrain 402#00000000
(2.660000) powertrain 400#0000190100000000
(2.660000) powertrain 401#401901000000
(2.660000) powertrain 402#00000000
(2.680000) powertrain 400#0000190100000000
(2.680000) powertrain 401#401901000000
(2.680000) powertrain 402#00000000
(2.700000) powertrain 400#0000190100000000
(2.700000) powertrain 401#401901000000
(2.700000) powertrain 402#00000000
(2.700000) powertrain 200#021801231B000000
(2.700000) powertrain 201#D200020000000000
(2.700000) powertrain 202#00000000
(2.700300) powertrain 600#401901000000321A
(2.700400) powertrain 602#000000000000
(2.720000) powertrain 400#0000190100000000
(2.720000) powertrain 401#401901000000
(2.720000) powertrain 402#00000000
(2.740000) powertrain 400#0000190100000000
(2.740000) powertrain 401#401901000000
(2.740000) powertrain 402#00000000
(2.750300) powertrain 601#FA00FA00FA00
(2.760000) powertrain 400#0000190100000000
(2.760000) powertrain 401#401901000000
(2.760000) powertrain 402#00000000
(2.780000) powertrain 400#0000190100000000
(2.780000) powertrain 401#401901000000
(2.780000) powertrain 402#00000000
(2.800000) powertrain 400#0000190100000000
(2.800000) powertrain 401#401901000000
(2.800000) powertrain 402#00000000
(2.800000) powertrain 500#00000000
(2.800000) powertrain 501#D8040000003E
(2.800000) powertrain 200#024001281C000000
(2.800000) powertrain 201#F000020000000000
(2.800000) powertrain 202#00000000
(2.800112) powertrain 300#0000000000000000
(2.800300) powertrain 600#401901000000321B
(2.800400) powertrain 602#000000000000
(2.820000) powertrain 400#0000190100000000
(2.820000) powertrain 401#401901000000
(2.820000) powertrain 402#00000000
(2.840000) powertrain 400#0000190100000000
(2.840000) powertrain 401#401901000000
(2.840000) powertrain 402#00000000
(2.860000) powertrain 400#0000190100000000
(2.860000) powertrain 401#401901000000
(2.860000) powertrain 402#00000000
(2.880000) powertrain 400#0000190100000000
(2.880000) powertrain 401#401901000000
(2.880000) powertrain 402#00000000
(2.900000) powertrain 400#0000190100000000
(2.900000) powertrain 401#401901000000
(2.900000) powertrain 402#00000000
(2.900000) powertrain 200#0268012D1D000000
(2.900000) powertrain 201#0E01020000000000
(2.900000) powertrain 202#00000000
(2.900300) powertrain 600#401901000000321C
(2.900400) powertrain 602#000000000000
(2.920000) powertrain 400#0000190100000000
(2.920000) powertrain 401#401901000000
(2.920000) powertrain 402#00000000
(2.940000) powertrain 400#0000190100000000
(2.940000) powertrain 401#401901000000
(2.940000) powertrain 402#00000000
(2.960000) powertrain 400#0000190100000000
(2.960000) powertrain 401#401901000000
(2.960000) powertrain 402#00000000
(2.980000) powertrain 400#0000190100000000
(2.980000) powertrain 401#401901000000
(2.980000) powertrain 402#00000000
(3.000000) powertrain 400#0000190100000000
(3.000000) powertrain 401#401901000000
(3.000000) powertrain 402#00000000
(3.000000) powertrain 500#00000000
(3.000000) powertrain 501#D8040000003E
(3.000000) powertrain 610#0000000000000000
(3.000000) powertrain 200#029001321E000000
(3.000000) powertrain 201#2C01020000000000
(3.000000) powertrain 202#00000000
(3.000119) powertrain 300#0000000000000000
(3.000119) powertrain 301#02A00000
(3.000300) powertrain 600#401901000000321D
(3.000400) powertrain 602#000000000000
(3.000500) powertrain 601#FA00FA00FA00
(3.000600) powertrain 603#1F0E010E6200
(3.000700) powertrain 604#0302000000000000
(3.020000) powertrain 400#0000190100000000
(3.020000) powertrain 401#401901000000
(3.020000) powertrain 402#00000000
(3.040000) powertrain 400#0000190100000000
(3.040000) powertrain 401#401901000000
(3.040000) powertrain 402#00000000
