(0.000100) powertrain 200#0000000000000000
(0.000100) powertrain 201#0000000000000000
(0.000100) powertrain 202#01A00000
(0.020000) powertrain 400#0000190100000000
(0.020000) powertrain 401#401901000000
(0.020000) powertrain 402#00000000
(0.040000) powertrain 400#0000190100000000
(0.040000) powertrain 401#401901000000
(0.040000) powertrain 402#00000000
(0.060000) powertrain 400#0000190100000000
(0.060000) powertrain 401#401901000000
(0.060000) powertrain 402#00000000
(0.080000) powertrain 400#0000190100000000
(0.080000) powertrain 401#401901000000
(0.080000) powertrain 402#00000000
(0.100000) powertrain 400#0000190100000000
(0.100000) powertrain 401#401901000000
(0.100000) powertrain 402#00000000
(0.100000) powertrain 200#0500000001000000
(0.100000) powertrain 201#0000000000000000
(0.100000) powertrain 202#00000000
(0.100300) powertrain 600#4019010000003200
(0.100300) powertrain 602#000000000000
(0.120000) powertrain 400#0000190100000000
(0.120000) powertrain 401#401901000000
(0.120000) powertrain 402#00000000
(0.140000) powertrain 400#0000190100000000
(0.140000) powertrain 401#401901000000
(0.140000) powertrain 402#00000000
(0.160000) powertrain 400#0000190100000000
(0.160000) powertrain 401#401901000000
(0.160000) powertrain 402#00000000
(0.180000) powertrain 400#0000190100000000
(0.180000) powertrain 401#401901000000
(0.180000) powertrain 402#00000000
(0.200000) powertrain 400#0000190100000000
(0.200000) powertrain 401#401901000000
(0.200000) powertrain 402#00000000
(0.200000) powertrain 500#00000000
(0.200000) powertrain 501#D8040000003E
(0.200000) powertrain 200#0500000002000000
(0.200000) powertrain 201#0000000000000000
(0.200000) powertrain 202#00000000
(0.200015) powertrain 300#03F81A0110270000
(0.200300) powertrain 600#4019010000003201
(0.200300) powertrain 602#000000000100
(0.220000) powertrain 400#0000190100000000
(0.220000) powertrain 401#401901000000
(0.220000) powertrain 402#00000000
(0.240000) powertrain 400#0000190100000000
(0.240000) powertrain 401#401901000000
(0.240000) powertrain 402#00000000
(0.250300) powertrain 601#FA00FA00FA00
(0.260000) powertrain 400#0000190100000000
(0.260000) powertrain 401#401901000000
(0.260000) powertrain 402#00000000
(0.280000) powertrain 400#0000190100000000
(0.280000) powertrain 401#401901000000
(0.280000) powertrain 402#00000000
(0.300000) powertrain 400#0000190100000000
(0.300000) powertrain 401#401901000000
(0.300000) powertrain 402#00000000
(0.300000) powertrain 200#0500000003000000
(0.300000) powertrain 201#0000000000000000
(0.300000) powertrain 202#00000000
(0.300300) powertrain 600#4019010000003202
(0.300300) powertrain 602#000000000100
(0.320000) powertrain 400#0000190100000000
(0.320000) powertrain 401#401901000000
(0.320000) powertrain 402#00000000
(0.340000) powertrain 400#0000190100000000
(0.340000) powertrain 401#401901000000
(0.340000) powertrain 402#00000000
(0.360000) powertrain 400#0000190100000000
(0.360000) powertrain 401#401901000000
(0.360000) powertrain 402#00000000
(0.380000) powertrain 400#0000190100000000
(0.380000) powertrain 401#401901000000
(0.380000) powertrain 402#00000000
(0.400000) powertrain 400#0000190100000000
(0.400000) powertrain 401#401901000000
(0.400000) powertrain 402#00000000
(0.400000) powertrain 500#00000000
(0.400000) powertrain 501#D8040000003E
(0.400000) powertrain 200#0500000004000000
(0.400000) powertrain 201#0000000000000000
(0.400000) powertrain 202#00000000
(0.400023) powertrain 300#03181E0110270000
(0.400300) powertrain 600#4019010000003203
(0.400300) powertrain 602#DC052C010200
(0.420000) powertrain 400#0000190100000000
(0.420000) powertrain 401#401901000000
(0.420000) powertrain 402#00000000
(0.440000) powertrain 400#0000190100000000
(0.440000) powertrain 401#401901000000
(0.440000) powertrain 402#00000000
(0.460000) powertrain 400#0000190100000000
(0.460000) powertrain 401#401901000000
(0.460000) powertrain 402#00000000
(0.480000) powertrain 400#0000190100000000
(0.480000) powertrain 401#401901000000
(0.480000) powertrain 402#00000000
(0.500000) powertrain 400#0000190100000000
(0.500000) powertrain 401#401901000000
(0.500000) powertrain 402#00000000
(0.500000) powertrain 200#0500000005000000
(0.500000) powertrain 201#0000000000000000
(0.500000) powertrain 202#00000000
(0.500026) powertrain 301#02A00000
(0.500300) powertrain 600#4019010000003204
(0.500300) powertrain 602#DC052C010200
(0.500300) powertrain 601#FA00FA00FA00
(0.500300) powertrain 603#1F0E010E6200
(0.520000) powertrain 400#0000190100000000
(0.520000) powertrain 401#401901000000
(0.520000) powertrain 402#00000000
(0.540000) powertrain 400#0000190100000000
(0.540000) powertrain 401#401901000000
(0.540000) powertrain 402#00000000
(0.560000) powertrain 400#0000190100000000
(0.560000) powertrain 401#401901000000
(0.560000) powertrain 402#00000000
(0.580000) powertrain 400#0000190100000000
(0.580000) powertrain 401#401901000000
(0.580000) powertrain 402#00000000
(0.600000) powertrain 400#0000190100000000
(0.600000) powertrain 401#401901000000
(0.600000) powertrain 402#00000000
(0.600000) powertrain 500#00000000
(0.600000) powertrain 501#D8040000003E
(0.600000) powertrain 200#0500000006000000
(0.600000) powertrain 201#0000000000000000
(0.600000) powertrain 202#00000000
(0.600030) powertrain 300#0338210110270000
(0.600300) powertrain 600#4019010000003205
(0.600300) powertrain 602#DC052C010200
(0.620000) powertrain 400#0000190100000000
(0.620000) powertrain 401#401901000000
(0.620000) powertrain 402#00000000
(0.640000) powertrain 400#0000190100000000
(0.640000) powertrain 401#401901000000
(0.640000) powertrain 402#00000000
(0.660000) powertrain 400#0000190100000000
(0.660000) powertrain 401#401901000000
(0.660000) powertrain 402#00000000
(0.680000) powertrain 400#0000190100000000
(0.680000) powertrain 401#401901000000
(0.680000) powertrain 402#00000000
(0.700000) powertrain 400#0000190100000000
(0.700000) powertrain 401#401901000000
(0.700000) powertrain 402#00000000
(0.700000) powertrain 200#0500000007000000
(0.700000) powertrain 201#0000000000000000
(0.700000) powertrain 202#00000000
(0.700300) powertrain 600#4019010000003206
(0.700300) powertrain 602#DC052C010200
(0.720000) powertrain 400#0000190100000000
(0.720000) powertrain 401#401901000000
(0.720000) powertrain 402#00000000
(0.740000) powertrain 400#0000190100000000
(0.740000) powertrain 401#401901000000
(0.740000) powertrain 402#00000000
(0.750300) powertrain 601#FA00FA00FA00
(0.760000) powertrain 400#0000190100000000
(0.760000) powertrain 401#401901000000
(0.760000) powertrain 402#00000000
(0.780000) powertrain 400#0000190100000000
(0.780000) powertrain 401#401901000000
(0.780000) powertrain 402#00000000
(0.800000) powertrain 400#0000190100000000
(0.800000) powertrain 401#401901000000
(0.800000) powertrain 402#00000000
(0.800000) powertrain 500#00000000
(0.800000) powertrain 501#D8040000003E
(0.800000) powertrain 200#0500000008000000
(0.800000) powertrain 201#0000000000000000
(0.800000) powertrain 202#00000000
(0.800037) powertrain 300#0358240110270000
(0.800300) powertrain 600#4019010000003207
(0.800300) powertrain 602#DC052C010200
(0.820000) powertrain 400#0000190100000000
(0.820000) powertrain 401#401901000000
(0.820000) powertrain 402#00000000
(0.840000) powertrain 400#0000190100000000
(0.840000) powertrain 401#401901000000
(0.840000) powertrain 402#00000000
(0.860000) powertrain 400#0000190100000000
(0.860000) powertrain 401#401901000000
(0.860000) powertrain 402#00000000
(0.880000) powertrain 400#0000190100000000
(0.880000) powertrain 401#401901000000
(0.880000) powertrain 402#00000000
(0.900000) powertrain 400#0000190100000000
(0.900000) powertrain 401#401901000000
(0.900000) powertrain 402#00000000
(0.900000) powertrain 200#0500000009000000
(0.900000) powertrain 201#0000000000000000
(0.900000) powertrain 202#00000000
(0.900300) powertrain 600#4019010000003208
(0.900300) powertrain 602#DC052C010200
(0.920000) powertrain 400#0000190100000000
(0.920000) powertrain 401#401901000000
(0.920000) powertrain 402#00000000
(0.940000) powertrain 400#0000190100000000
(0.940000) powertrain 401#401901000000
(0.940000) powertrain 402#00000000
(0.960000) powertrain 400#0000190100000000
(0.960000) powertrain 401#401901000000
(0.960000) powertrain 402#00000000
(0.980000) powertrain 400#0000190100000000
(0.980000) powertrain 401#401901000000
(0.980000) powertrain 402#00000000
(1.000000) powertrain 400#0000190100000000
(1.000000) powertrain 401#401901000000
(1.000000) powertrain 402#00000000
(1.000000) powertrain 500#00000000
(1.000000) powertrain 501#D8040000003E
(1.000000) powertrain 610#0000000000000000
(1.000000) powertrain 200#050000000A000000
(1.000000) powertrain 201#0000000000000000
(1.000000) powertrain 202#00000000
(1.000300) powertrain 600#4019010000003209
(1.000300) powertrain 602#DC052C010200
(1.000300) powertrain 601#FA00FA00FA00
(1.000300) powertrain 603#1F0E010E6200
(1.020000) powertrain 400#0000190100000000
(1.020000) powertrain 401#401901000000
(1.020000) powertrain 402#00000000
(1.040000) powertrain 400#0000190100000000
(1.040000) powertrain 401#401901000000
(1.040000) powertrain 402#00000000
(1.060000) powertrain 400#0000190100000000
(1.060000) powertrain 401#401901000000
(1.060000) powertrain 402#00000000
(1.080000) powertrain 400#0000190100000000
(1.080000) powertrain 401#401901000000
(1.080000) powertrain 402#00000000
(1.100000) powertrain 400#0000190100000000
(1.100000) powertrain 401#401901000000
(1.100000) powertrain 402#00000000
(1.100000) powertrain 200#050000000B000000
(1.100000) powertrain 201#0000000000000000
(1.100000) powertrain 202#00000000
(1.100300) powertrain 604#0500000000000000
(1.100300) powertrain 600#401901000000320A
(1.100300) powertrain 602#000000000000
(1.120000) powertrain 400#0000190100000000
(1.120000) powertrain 401#401901000000
(1.120000) powertrain 402#00000000
(1.140000) powertrain 400#0000190100000000
(1.140000) powertrain 401#401901000000
(1.140000) powertrain 402#00000000
(1.160000) powertrain 400#0000190100000000
(1.160000) powertrain 401#401901000000
(1.160000) powertrain 402#00000000
(1.180000) powertrain 400#0000190100000000
(1.180000) powertrain 401#401901000000
(1.180000) powertrain 402#00000000
(1.200000) powertrain 400#0000190100000000
(1.200000) powertrain 401#401901000000
(1.200000) powertrain 402#00000000
(1.200000) powertrain 500#00000000
(1.200000) powertrain 501#D8040000003E
(1.200000) powertrain 200#050000000C000000
(1.200000) powertrain 201#0000000000000000
(1.200000) powertrain 202#00000000
(1.200300) powertrain 600#401901000000320B
(1.200300) powertrain 602#000000000000
(1.220000) powertrain 400#0000190100000000
(1.220000) powertrain 401#401901000000
(1.220000) powertrain 402#00000000
(1.240000) powertrain 400#0000190100000000
(1.240000) powertrain 401#401901000000
(1.240000) powertrain 402#00000000
(1.250300) powertrain 601#FA00FA00FA00
(1.260000) powertrain 400#0000190100000000
(1.260000) powertrain 401#401901000000
(1.260000) powertrain 402#00000000
(1.280000) powertrain 400#0000190100000000
(1.280000) powertrain 401#401901000000
(1.280000) powertrain 402#00000000
(1.300000) powertrain 400#0000190100000000
(1.300000) powertrain 401#401901000000
(1.300000) powertrain 402#00000000
(1.300000) powertrain 200#050000000D000000
(1.300000) powertrain 201#0000000000000000
(1.300000) powertrain 202#00000000
(1.300300) powertrain 600#401901000000320C
(1.300300) powertrain 602#000000000000
(1.320000) powertrain 400#0000190100000000
(1.320000) powertrain 401#401901000000
(1.320000) powertrain 402#00000000
(1.340000) powertrain 400#0000190100000000
(1.340000) powertrain 401#401901000000
(1.340000) powertrain 402#00000000
(1.360000) powertrain 400#0000190100000000
(1.360000) powertrain 401#401901000000
(1.360000) powertrain 402#00000000
(1.380000) powertrain 400#0000190100000000
(1.380000) powertrain 401#401901000000
(1.380000) powertrain 402#00000000
(1.400000) powertrain 400#0000190100000000
(1.400000) powertrain 401#401901000000
(1.400000) powertrain 402#00000000
(1.400000) powertrain 500#00000000
(1.400000) powertrain 501#D8040000003E
(1.400000) powertrain 200#050000000E000000
(1.400000) powertrain 201#0000000000000000
(1.400000) powertrain 202#00000000
(1.400300) powertrain 600#401901000000320D
(1.400300) powertrain 602#000000000000
(1.420000) powertrain 400#0000190100000000
(1.420000) powertrain 401#401901000000
(1.420000) powertrain 402#00000000
(1.440000) powertrain 400#0000190100000000
(1.440000) powertrain 401#401901000000
(1.440000) powertrain 402#00000000
(1.460000) powertrain 400#0000190100000000
(1.460000) powertrain 401#401901000000
(1.460000) powertrain 402#00000000
(1.480000) powertrain 400#0000190100000000
(1.480000) powertrain 401#401901000000
(1.480000) powertrain 402#00000000
(1.500000) powertrain 400#0000190100000000
(1.500000) powertrain 401#401901000000
(1.500000) powertrain 402#00000000
(1.500000) powertrain 200#050000000F000000
(1.500000) powertrain 201#0000000000000000
(1.500000) powertrain 202#00000000
(1.500300) powertrain 600#401901000000320E
(1.500300) powertrain 602#000000000000
(1.500300) powertrain 601#FA00FA00FA00
(1.500300) powertrain 603#1F0E010E6200
(1.500300) powertrain 604#0501000000000000
(1.520000) powertrain 400#0000190100000000
(1.520000) powertrain 401#401901000000
(1.520000) powertrain 402#00000000
(1.540000) powertrain 400#0000190100000000
(1.540000) powertrain 401#401901000000
(1.540000) powertrain 402#00000000
(1.560000) powertrain 400#0000190100000000
(1.560000) powertrain 401#401901000000
(1.560000) powertrain 402#00000000
(1.580000) powertrain 400#0000190100000000
(1.580000) powertrain 401#401901000000
(1.580000) powertrain 402#00000000
(1.590066) powertrain 300#03601C0110270000
(1.600000) powertrain 400#0000190100000000
(1.600000) powertrain 401#401901000000
(1.600000) powertrain 402#00000000
(1.600000) powertrain 500#00000000
(1.600000) powertrain 501#D8040000003E
(1.600000) powertrain 200#0500000010000000
(1.600000) powertrain 201#0000000000000000
(1.600000) powertrain 202#00000000
(1.600300) powertrain 600#401901000000320F
(1.600400) powertrain 602#DC052C010200
(1.620000) powertrain 400#0000190100000000
(1.620000) powertrain 401#401901000000
(1.620000) powertrain 402#00000000
(1.640000) powertrain 400#0000190100000000
(1.640000) powertrain 401#401901000000
(1.640000) powertrain 402#00000000
(1.660000) powertrain 400#0000190100000000
(1.660000) powertrain 401#401901000000
(1.660000) powertrain 402#00000000
(1.680000) powertrain 400#0000190100000000
(1.680000) powertrain 401#401901000000
(1.680000) powertrain 402#00000000
(1.700000) powertrain 400#0000190100000000
(1.700000) powertrain 401#401901000000
(1.700000) powertrain 402#00000000
(1.700000) powertrain 200#0500000011000000
(1.700000) powertrain 201#0000000000000000
(1.700000) powertrain 202#00000000
(1.700300) powertrain 600#4019010000003210
(1.700400) powertrain 602#DC052C010200
(1.720000) powertrain 400#0000190100000000
(1.720000) powertrain 401#401901000000
(1.720000) powertrain 402#00000000
(1.740000) powertrain 400#0000190100000000
(1.740000) powertrain 401#401901000000
(1.740000) powertrain 402#00000000
(1.750300) powertrain 601#FA00FA00FA00
(1.760000) powertrain 400#0000190100000000
(1.760000) powertrain 401#401901000000
(1.760000) powertrain 402#00000000
(1.780000) powertrain 400#0000190100000000
(1.780000) powertrain 401#401901000000
(1.780000) powertrain 402#00000000
(1.790074) powertrain 300#03801F0110270000
(1.800000) powertrain 400#0000190100000000
(1.800000) powertrain 401#401901000000
(1.800000) powertrain 402#00000000
(1.800000) powertrain 500#00000000
(1.800000) powertrain 501#D8040000003E
(1.800000) powertrain 200#0500000012000000
(1.800000) powertrain 201#0000000000000000
(1.800000) powertrain 202#00000000
(1.800300) powertrain 600#4019010000003211
(1.800400) powertrain 602#DC052C010200
(1.820000) powertrain 400#0000190100000000
(1.820000) powertrain 401#401901000000
(1.820000) powertrain 402#00000000
(1.840000) powertrain 400#0000190100000000
(1.840000) powertrain 401#401901000000
(1.840000) powertrain 402#00000000
(1.860000) powertrain 400#0000190100000000
(1.860000) powertrain 401#401901000000
(1.860000) powertrain 402#00000000
(1.880000) powertrain 400#0000190100000000
(1.880000) powertrain 401#401901000000
(1.880000) powertrain 402#00000000
(1.890077) powertrain 301#02A00000
(1.900000) powertrain 400#0000190100000000
(1.900000) powertrain 401#401901000000
(1.900000) powertrain 402#00000000
(1.900000) powertrain 200#0500000013000000
(1.900000) powertrain 201#0000000000000000
(1.900000) powertrain 202#00000000
(1.900300) powertrain 600#4019010000003212
(1.900400) powertrain 602#DC052C010200
(1.920000) powertrain 400#0000190100000000
(1.920000) powertrain 401#401901000000
(1.920000) powertrain 402#00000000
(1.940000) powertrain 400#0000190100000000
(1.940000) powertrain 401#401901000000
(1.940000) powertrain 402#00000000
(1.960000) powertrain 400#0000190100000000
(1.960000) powertrain 401#401901000000
(1.960000) powertrain 402#00000000
(1.980000) powertrain 400#0000190100000000
(1.980000) powertrain 401#401901000000
(1.980000) powertrain 402#00000000
(1.990081) powertrain 300#03A0220110270000
(2.000000) powertrain 400#0000190100000000
(2.000000) powertrain 401#401901000000
(2.000000) powertrain 402#00000000
(2.000000) powertrain 500#00000000
(2.000000) powertrain 501#D8040000003E
(2.000000) powertrain 610#0000000000000000
(2.000000) powertrain 200#0500000014000000
(2.000000) powertrain 201#0000000000000000
(2.000000) powertrain 202#00000000
(2.000300) powertrain 600#4019010000003213
(2.000400) powertrain 602#DC052C010200
(2.000500) powertrain 601#FA00FA00FA00
(2.000600) powertrain 603#1F0E010E6200
(2.020000) powertrain 400#0000190100000000
(2.020000) powertrain 401#401901000000
(2.020000) powertrain 402#00000000
(2.040000) powertrain 400#0000190100000000
(2.040000) powertrain 401#401901000000
(2.040000) powertrain 402#00000000
(2.060000) powertrain 400#0000190100000000
(2.060000) powertrain 401#401901000000
(2.060000) powertrain 402#00000000
(2.080000) powertrain 400#0000190100000000
(2.080000) powertrain 401#401901000000
(2.080000) powertrain 402#00000000
(2.100000) powertrain 400#0000190100000000
(2.100000) powertrain 401#401901000000
(2.100000) powertrain 402#00000000
(2.100000) powertrain 200#0500000015000000
(2.100000) powertrain 201#0000000000000000
(2.100000) powertrain 202#00000000
(2.100300) powertrain 600#4019010000003214
(2.100400) powertrain 602#DC052C010200
(2.120000) powertrain 400#0000190100000000
(2.120000) powertrain 401#401901000000
(2.120000) powertrain 402#00000000
(2.140000) powertrain 400#0000190100000000
(2.140000) powertrain 401#401901000000
(2.140000) powertrain 402#00000000
(2.160000) powertrain 400#0000190100000000
(2.160000) powertrain 401#401901000000
(2.160000) powertrain 402#00000000
(2.180000) powertrain 400#0000190100000000
(2.180000) powertrain 401#401901000000
(2.180000) powertrain 402#00000000
(2.190100) powertrain 300#03C0250110270000
(2.200000) powertrain 400#0000190100000000
(2.200000) powertrain 401#401901000000
(2.200000) powertrain 402#00000000
(2.200000) powertrain 500#00000000
(2.200000) powertrain 501#D8040000003E
(2.200000) powertrain 200#0500000016000000
(2.200000) powertrain 201#0000000000000000
(2.200000) powertrain 202#00000000
(2.200300) powertrain 600#4019010000003215
(2.200400) powertrain 602#DC052C010200
(2.220000) powertrain 400#0000190100000000
(2.220000) powertrain 401#401901000000
(2.220000) powertrain 402#00000000
(2.240000) powertrain 400#0000190100000000
(2.240000) powertrain 401#401901000000
(2.240000) powertrain 402#00000000
(2.250300) powertrain 601#FA00FA00FA00
(2.260000) powertrain 400#0000190100000000
(2.260000) powertrain 401#401901000000
(2.260000) powertrain 402#00000000
(2.280000) powertrain 400#0000190100000000
(2.280000) powertrain 401#401901000000
(2.280000) powertrain 402#00000000
(2.300000) powertrain 400#0000190100000000
(2.300000) powertrain 401#401901000000
(2.300000) powertrain 402#00000000
(2.300000) powertrain 200#0500000017000000
(2.300000) powertrain 201#0000000000000000
(2.300000) powertrain 202#00000000
(2.300300) powertrain 600#4019010000003216
(2.300400) powertrain 602#DC052C010200
(2.320000) powertrain 400#0000190100000000
(2.320000) powertrain 401#401901000000
(2.320000) powertrain 402#00000000
(2.340000) powertrain 400#0000190100000000
(2.340000) powertrain 401#401901000000
(2.340000) powertrain 402#00000000
(2.360000) powertrain 400#0000190100000000
(2.360000) powertrain 401#401901000000
(2.360000) powertrain 402#00000000
(2.380000) powertrain 400#0000190100000000
(2.380000) powertrain 401#401901000000
(2.380000) powertrain 402#00000000
(2.390100) powertrain 300#03E0280110270000
(2.390100) powertrain 301#02A00000
(2.400000) powertrain 400#0000190100000000
(2.400000) powertrain 401#401901000000
(2.400000) powertrain 402#00000000
(2.400000) powertrain 500#00000000
(2.400000) powertrain 501#D8040000003E
(2.400000) powertrain 200#0500000018000000
(2.400000) powertrain 201#0000000000000000
(2.400000) powertrain 202#00000000
(2.400300) powertrain 600#4019010000003217
(2.400400) powertrain 602#DC052C010200
(2.420000) powertrain 400#0000190100000000
(2.420000) powertrain 401#401901000000
(2.420000) powertrain 402#00000000
(2.440000) powertrain 400#0000190100000000
(2.440000) powertrain 401#401901000000
(2.440000) powertrain 402#00000000
(2.460000) powertrain 400#0000190100000000
(2.460000) powertrain 401#401901000000
(2.460000) powertrain 402#00000000
(2.480000) powertrain 400#0000190100000000
(2.480000) powertrain 401#401901000000
(2.480000) powertrain 402#00000000
(2.500000) powertrain 400#0000190100000000
(2.500000) powertrain 401#401901000000
(2.500000) powertrain 402#00000000
(2.500000) powertrain 200#0500000019000000
(2.500000) powertrain 201#0000000000000000
(2.500000) powertrain 202#00000000
(2.500300) powertrain 600#4019010000003218
(2.500400) powertrain 602#DC052C010200
(2.500500) powertrain 601#FA00FA00FA00
(2.500600) powertrain 603#1F0E010E6200
(2.520000) powertrain 400#0000190100000000
(2.520000) powertrain 401#401901000000
(2.520000) powertrain 402#00000000
(2.540000) powertrain 400#0000190100000000
(2.540000) powertrain 401#401901000000
(2.540000) powertrain 402#00000000
(2.560000) powertrain 400#0000190100000000
(2.560000) powertrain 401#401901000000
(2.560000) powertrain 402#00000000
(2.580000) powertrain 400#0000190100000000
(2.580000) powertrain 401#401901000000
(2.580000) powertrain 402#00000000
(2.590103) powertrain 300#03002C0110270000
(2.600000) powertrain 400#0000190100000000
(2.600000) powertrain 401#401901000000
(2.600000) powertrain 402#00000000
(2.600000) powertrain 500#00000000
(2.600000) powertrain 501#D8040000003E
