(0.000100) powertrain 200#0000000000000000
(0.000100) powertrain 201#0000000000000000
(0.000100) powertrain 202#01A00000
(0.020000) powertrain 400#0000190100000000
(0.020000) powertrain 401#401901000000
(0.020000) powertrain 402#00000000
(0.040000) powertrain 400#0000190100000000
(0.040000) powertrain 401#401901000000
(0.040000) powertrain 402#00000000
(0.060000) powertrain 400#0000190100000000
(0.060000) powertrain 401#401901000000
(0.060000) powertrain 402#00000000
(0.080000) powertrain 400#0000190100000000
(0.080000) powertrain 401#401901000000
(0.080000) powertrain 402#00000000
(0.100000) powertrain 400#0000190100000000
(0.100000) powertrain 401#401901000000
(0.100000) powertrain 402#00000000
(0.100000) powertrain 200#0000000001000000
(0.100000) powertrain 201#0000000000000000
(0.100000) powertrain 202#01A00000
(0.100300) powertrain 600#4019010000003200
(0.100300) powertrain 602#000000000000
(0.120000) powertrain 400#0000190100000000
(0.120000) powertrain 401#401901000000
(0.120000) powertrain 402#00000000
(0.140000) powertrain 400#0000190100000000
(0.140000) powertrain 401#401901000000
(0.140000) powertrain 402#00000000
(0.160000) powertrain 400#0000190100000000
(0.160000) powertrain 401#401901000000
(0.160000) powertrain 402#00000000
(0.180000) powertrain 400#0000190100000000
(0.180000) powertrain 401#401901000000
(0.180000) powertrain 402#00000000
(0.200000) powertrain 400#0000190100000000
(0.200000) powertrain 401#401901000000
(0.200000) powertrain 402#00000000
(0.200000) powertrain 500#00000000
(0.200000) powertrain 501#D8040000003E
(0.200000) powertrain 200#0000000002000000
(0.200000) powertrain 201#0000000000000000
(0.200000) powertrain 202#01A00000
(0.200015) powertrain 300#03F81A0110270000
(0.200300) powertrain 600#4019010000003201
(0.200300) powertrain 602#000000000100
(0.220000) powertrain 400#0000190100000000
(0.220000) powertrain 401#401901000000
(0.220000) powertrain 402#00000000
(0.240000) powertrain 400#0000190100000000
(0.240000) powertrain 401#401901000000
(0.240000) powertrain 402#00000000
(0.250300) powertrain 601#FA00FA00FA00
(0.260000) powertrain 400#0000190100000000
(0.260000) powertrain 401#401901000000
(0.260000) powertrain 402#00000000
(0.280000) powertrain 400#0000190100000000
(0.280000) powertrain 401#401901000000
(0.280000) powertrain 402#00000000
(0.300000) powertrain 400#0000190100000000
(0.300000) powertrain 401#401901000000
(0.300000) powertrain 402#00000000
(0.300000) powertrain 200#0000000003000000
(0.300000) powertrain 201#0000000000000000
(0.300000) powertrain 202#01A00000
(0.300300) powertrain 600#4019010000003202
(0.300300) powertrain 602#000000000100
(0.320000) powertrain 400#0000190100000000
(0.320000) powertrain 401#401901000000
(0.320000) powertrain 402#00000000
(0.340000) powertrain 400#0000190100000000
(0.340000) powertrain 401#401901000000
(0.340000) powertrain 402#00000000
(0.360000) powertrain 400#0000190100000000
(0.360000) powertrain 401#401901000000
(0.360000) powertrain 402#00000000
(0.380000) powertrain 400#0000190100000000
(0.380000) powertrain 401#401901000000
(0.380000) powertrain 402#00000000
(0.400000) powertrain 400#0000190100000000
(0.400000) powertrain 401#401901000000
(0.400000) powertrain 402#00000000
(0.400000) powertrain 500#00000000
(0.400000) powertrain 501#D8040000003E
(0.400000) powertrain 200#0000000004000000
(0.400000) powertrain 201#0000000000000000
(0.400000) powertrain 202#01A00000
(0.400023) powertrain 300#03181E0110270000
(0.400300) powertrain 600#4019010000003203
(0.400300) powertrain 602#DC052C010200
(0.420000) powertrain 400#0000190100000000
(0.420000) powertrain 401#401901000000
(0.420000) powertrain 402#00000000
(0.440000) powertrain 400#0000190100000000
(0.440000) powertrain 401#401901000000
(0.440000) powertrain 402#00000000
(0.460000) powertrain 400#0000190100000000
(0.460000) powertrain 401#401901000000
(0.460000) powertrain 402#00000000
(0.480000) powertrain 400#0000190100000000
(0.480000) powertrain 401#401901000000
(0.480000) powertrain 402#00000000
(0.500000) powertrain 400#0000190100000000
(0.500000) powertrain 401#401901000000
(0.500000) powertrain 402#00000000
(0.500000) powertrain 200#0000000005000000
(0.500000) powertrain 201#0000000000000000
(0.500000) powertrain 202#01A00000
(0.500026) powertrain 301#02A00000
(0.500300) powertrain 600#4019010000003204
(0.500300) powertrain 602#DC052C010200
(0.500300) powertrain 601#FA00FA00FA00
(0.500300) powertrain 603#1F0E010E6200
(0.520000) powertrain 400#0000190100000000
(0.520000) powertrain 401#401901000000
(0.520000) powertrain 402#00000000
(0.540000) powertrain 400#0000190100000000
(0.540000) powertrain 401#401901000000
(0.540000) powertrain 402#00000000
(0.560000) powertrain 400#0000190100000000
(0.560000) powertrain 401#401901000000
(0.560000) powertrain 402#00000000
(0.580000) powertrain 400#0000190100000000
(0.580000) powertrain 401#401901000000
(0.580000) powertrain 402#00000000
(0.600000) powertrain 400#0000190100000000
(0.600000) powertrain 401#401901000000
(0.600000) powertrain 402#00000000
(0.600000) powertrain 500#00000000
(0.600000) powertrain 501#D8040000003E
(0.600000) powertrain 200#0000000006000000
(0.600000) powertrain 201#0000000000000000
(0.600000) powertrain 202#01A00000
(0.600030) powertrain 300#0338210110270000
(0.600300) powertrain 600#4019010000003205
(0.600300) powertrain 602#DC052C010200
(0.620000) powertrain 400#0000190100000000
(0.620000) powertrain 401#401901000000
(0.620000) powertrain 402#00000000
(0.640000) powertrain 400#0000190100000000
(0.640000) powertrain 401#401901000000
(0.640000) powertrain 402#00000000
(0.660000) powertrain 400#0000190100000000
(0.660000) powertrain 401#401901000000
(0.660000) powertrain 402#00000000
(0.680000) powertrain 400#0000190100000000
(0.680000) powertrain 401#401901000000
(0.680000) powertrain 402#00000000
(0.700000) powertrain 400#0000190100000000
(0.700000) powertrain 401#401901000000
(0.700000) powertrain 402#00000000
(0.700000) powertrain 200#0000000007000000
(0.700000) powertrain 201#0000000000000000
(0.700000) powertrain 202#01A00000
(0.700300) powertrain 600#4019010000003206
(0.700300) powertrain 602#DC052C010200
(0.720000) powertrain 400#0000190100000000
(0.720000) powertrain 401#401901000000
(0.720000) powertrain 402#00000000
(0.740000) powertrain 400#0000190100000000
(0.740000) powertrain 401#401901000000
(0.740000) powertrain 402#00000000
(0.750300) powertrain 601#FA00FA00FA00
(0.760000) powertrain 400#0000190100000000
(0.760000) powertrain 401#401901000000
(0.760000) powertrain 402#00000000
(0.780000) powertrain 400#0000190100000000
(0.780000) powertrain 401#401901000000
(0.780000) powertrain 402#00000000
(0.800000) powertrain 400#0000190100000000
(0.800000) powertrain 401#401901000000
(0.800000) powertrain 402#00000000
(0.800000) powertrain 500#00000000
(0.800000) powertrain 501#D8040000003E
(0.800000) powertrain 200#0000000008000000
(0.800000) powertrain 201#0000000000000000
(0.800000) powertrain 202#01A00000
(0.800037) powertrain 300#0358240110270000
(0.800300) powertrain 600#4019010000003207
(0.800300) powertrain 602#DC052C010200
(0.820000) powertrain 400#0000190100000000
(0.820000) powertrain 401#401901000000
(0.820000) powertrain 402#00000000
(0.840000) powertrain 400#0000190100000000
(0.840000) powertrain 401#401901000000
(0.840000) powertrain 402#00000000
(0.860000) powertrain 400#0000190100000000
(0.860000) powertrain 401#401901000000
(0.860000) powertrain 402#00000000
(0.880000) powertrain 400#0000190100000000
(0.880000) powertrain 401#401901000000
(0.880000) powertrain 402#00000000
(0.900000) powertrain 400#0000190100000000
(0.900000) powertrain 401#401901000000
(0.900000) powertrain 402#00000000
(0.900000) powertrain 200#0000000009000000
(0.900000) powertrain 201#0000000000000000
(0.900000) powertrain 202#01A00000
(0.900300) powertrain 600#4019010000003208
(0.900300) powertrain 602#DC052C010200
(0.920000) powertrain 400#0000190100000000
(0.920000) powertrain 401#401901000000
(0.920000) powertrain 402#00000000
(0.940000) powertrain 400#0000190100000000
(0.940000) powertrain 401#401901000000
(0.940000) powertrain 402#00000000
(0.960000) powertrain 400#0000190100000000
(0.960000) powertrain 401#401901000000
(0.960000) powertrain 402#00000000
(0.980000) powertrain 400#0000190100000000
(0.980000) powertrain 401#401901000000
(0.980000) powertrain 402#00000000
(1.000000) powertrain 400#0000190100000000
(1.000000) powertrain 401#401901000000
(1.000000) powertrain 402#00000000
(1.000000) powertrain 500#00000000
(1.000000) powertrain 501#D8040000003E
(1.000000) powertrain 610#0000000000000000
(1.000000) powertrain 200#000000000A000000
(1.000000) powertrain 201#0000000000000000
(1.000000) powertrain 202#01A00000
(1.000045) powertrain 300#0378270110270000
(1.000045) powertrain 301#02A00000
(1.000300) powertrain 600#4019010000003209
(1.000300) powertrain 602#DC052C010200
(1.000300) powertrain 601#FA00FA00FA00
(1.000300) powertrain 603#1F0E010E6200
(1.020000) powertrain 400#0000190100000000
(1.020000) powertrain 401#401901000000
(1.020000) powertrain 402#00000000
(1.040000) powertrain 400#0000190100000000
(1.040000) powertrain 401#401901000000
(1.040000) powertrain 402#00000000
(1.060000) powertrain 400#0000190100000000
(1.060000) powertrain 401#401901000000
(1.060000) powertrain 402#00000000
(1.080000) powertrain 400#0000190100000000
(1.080000) powertrain 401#401901000000
(1.080000) powertrain 402#00000000
(1.100000) powertrain 400#0000190100000000
(1.100000) powertrain 401#401901000000
(1.100000) powertrain 402#00000000
(1.100000) powertrain 200#000000000B000000
(1.100000) powertrain 201#0000000000000000
(1.100000) powertrain 202#01A00000
(1.100300) powertrain 600#401901000000320A
(1.100300) powertrain 602#DC052C010200
(1.120000) powertrain 400#0000190100000000
(1.120000) powertrain 401#401901000000
(1.120000) powertrain 402#00000000
(1.140000) powertrain 400#0000190100000000
(1.140000) powertrain 401#401901000000
(1.140000) powertrain 402#00000000
(1.160000) powertrain 400#0000190100000000
(1.160000) powertrain 401#401901000000
(1.160000) powertrain 402#00000000
(1.180000) powertrain 400#0000190100000000
(1.180000) powertrain 401#401901000000
(1.180000) powertrain 402#00000000
(1.200000) powertrain 400#0000190100000000
(1.200000) powertrain 401#401901000000
(1.200000) powertrain 402#00000000
(1.200000) powertrain 500#00000000
(1.200000) powertrain 501#D8040000003E
(1.200000) powertrain 200#000000000C000000
(1.200000) powertrain 201#0000000000000000
(1.200000) powertrain 202#01A00000
(1.200052) powertrain 300#03982A0110270000
(1.200300) powertrain 600#401901000000320B
(1.200300) powertrain 602#DC052C010200
(1.220000) powertrain 400#0000190100000000
(1.220000) powertrain 401#401901000000
(1.220000) powertrain 402#00000000
(1.240000) powertrain 400#0000190100000000
(1.240000) powertrain 401#401901000000
(1.240000) powertrain 402#00000000
(1.250300) powertrain 601#FA00FA00FA00
(1.260000) powertrain 400#0000190100000000
(1.260000) powertrain 401#401901000000
(1.260000) powertrain 402#00000000
(1.280000) powertrain 400#0000190100000000
(1.280000) powertrain 401#401901000000
(1.280000) powertrain 402#00000000
(1.300000) powertrain 400#0000190100000000
(1.300000) powertrain 401#401901000000
(1.300000) powertrain 402#00000000
(1.300000) powertrain 200#000000000D000000
(1.300000) powertrain 201#0000000000000000
(1.300000) powertrain 202#01A00000
(1.300300) powertrain 600#401901000000320C
(1.300300) powertrain 602#DC052C010200
(1.320000) powertrain 400#0000190100000000
(1.320000) powertrain 401#401901000000
(1.320000) powertrain 402#00000000
(1.340000) powertrain 400#0000190100000000
(1.340000) powertrain 401#401901000000
(1.340000) powertrain 402#00000000
(1.360000) powertrain 400#0000190100000000
(1.360000) powertrain 401#401901000000
(1.360000) powertrain 402#00000000
(1.380000) powertrain 400#0000190100000000
(1.380000) powertrain 401#401901000000
(1.380000) powertrain 402#00000000
(1.400000) powertrain 400#0000190100000000
(1.400000) powertrain 401#401901000000
(1.400000) powertrain 402#00000000
(1.400000) powertrain 500#00000000
(1.400000) powertrain 501#D8040000003E
(1.400000) powertrain 200#000000000E000000
(1.400000) powertrain 201#0000000000000000
(1.400000) powertrain 202#01A00000
(1.400300) powertrain 600#401901000000320D
(1.400300) powertrain 602#DC052C010200
(1.420000) powertrain 400#0000190100000000
(1.420000) powertrain 401#401901000000
(1.420000) powertrain 402#00000000
(1.440000) powertrain 400#0000190100000000
(1.440000) powertrain 401#401901000000
(1.440000) powertrain 402#00000000
(1.460000) powertrain 400#0000190100000000
(1.460000) powertrain 401#401901000000
(1.460000) powertrain 402#00000000
(1.480000) powertrain 400#0000190100000000
(1.480000) powertrain 401#401901000000
(1.480000) powertrain 402#00000000
(1.500000) powertrain 400#0000190100000000
(1.500000) powertrain 401#401901000000
(1.500000) powertrain 402#00000000
(1.500000) powertrain 200#000000000F000000
(1.500000) powertrain 201#0000000000000000
(1.500000) powertrain 202#01A00000
(1.500300) powertrain 604#0500000000000000
(1.500300) powertrain 600#401901000000320E
(1.500300) powertrain 602#000000000000
(1.500300) powertrain 601#FA00FA00FA00
(1.500400) powertrain 603#1F0E010E6200
(1.500400) powertrain 604#0501000000000000
(1.520000) powertrain 400#0000190100000000
(1.520000) powertrain 401#401901000000
(1.520000) powertrain 402#00000000
(1.540000) powertrain 400#0000190100000000
(1.540000) powertrain 401#401901000000
(1.540000) powertrain 402#00000000
(1.560000) powertrain 400#0000190100000000
(1.560000) powertrain 401#401901000000
(1.560000) powertrain 402#00000000
(1.580000) powertrain 400#0000190100000000
(1.580000) powertrain 401#401901000000
(1.580000) powertrain 402#00000000
(1.600000) powertrain 400#0000190100000000
(1.600000) powertrain 401#401901000000
(1.600000) powertrain 402#00000000
(1.600000) powertrain 500#00000000
(1.600000) powertrain 501#D8040000003E
(1.600000) powertrain 200#0000000010000000
(1.600000) powertrain 201#0000000000000000
(1.600000) powertrain 202#01A00000
(1.600300) powertrain 600#401901000000320F
(1.600300) powertrain 602#000000000000
(1.620000) powertrain 400#0000190100000000
(1.620000) powertrain 401#401901000000
(1.620000) powertrain 402#00000000
(1.640000) powertrain 400#0000190100000000
(1.640000) powertrain 401#401901000000
(1.640000) powertrain 402#00000000
(1.660000) powertrain 400#0000190100000000
(1.660000) powertrain 401#401901000000
(1.660000) powertrain 402#00000000
(1.680000) powertrain 400#0000190100000000
(1.680000) powertrain 401#401901000000
(1.680000) powertrain 402#00000000
(1.700000) powertrain 400#0000190100000000
(1.700000) powertrain 401#401901000000
(1.700000) powertrain 402#00000000
(1.700000) powertrain 200#0000000011000000
(1.700000) powertrain 201#0000000000000000
(1.700000) powertrain 202#01A00000
(1.700300) powertrain 600#4019010000003210
(1.700300) powertrain 602#000000000000
(1.720000) powertrain 400#0000190100000000
(1.720000) powertrain 401#401901000000
(1.720000) powertrain 402#00000000
(1.740000) powertrain 400#0000190100000000
(1.740000) powertrain 401#401901000000
(1.740000) powertrain 402#00000000
(1.750300) powertrain 601#FA00FA00FA00
(1.760000) powertrain 400#0000190100000000
(1.760000) powertrain 401#401901000000
(1.760000) powertrain 402#00000000
(1.780000) powertrain 400#0000190100000000
(1.780000) powertrain 401#401901000000
(1.780000) powertrain 402#00000000
(1.800000) powertrain 400#0000190100000000
(1.800000) powertrain 401#401901000000
(1.800000) powertrain 402#00000000
(1.800000) powertrain 500#00000000
(1.800000) powertrain 501#D8040000003E
(1.800000) powertrain 200#0000000012000000
(1.800000) powertrain 201#0000000000000000
(1.800000) powertrain 202#01A00000
(1.800300) powertrain 600#4019010000003211
(1.800300) powertrain 602#000000000000
(1.820000) powertrain 400#0000190100000000
(1.820000) powertrain 401#401901000000
(1.820000) powertrain 402#00000000
(1.840000) powertrain 400#0000190100000000
(1.840000) powertrain 401#401901000000
(1.840000) powertrain 402#00000000
(1.860000) powertrain 400#0000190100000000
(1.860000) powertrain 401#401901000000
(1.860000) powertrain 402#00000000
(1.880000) powertrain 400#0000190100000000
(1.880000) powertrain 401#401901000000
(1.880000) powertrain 402#00000000
(1.900000) powertrain 400#0000190100000000
(1.900000) powertrain 401#401901000000
(1.900000) powertrain 402#00000000
(1.900000) powertrain 200#0000000013000000
(1.900000) powertrain 201#0000000000000000
(1.900000) powertrain 202#01A00000
(1.900300) powertrain 600#4019010000003212
(1.900300) powertrain 602#000000000000
(1.920000) powertrain 400#0000190100000000
(1.920000) powertrain 401#401901000000
(1.920000) powertrain 402#00000000
(1.940000) powertrain 400#0000190100000000
(1.940000) powertrain 401#401901000000
(1.940000) powertrain 402#00000000
(1.960000) powertrain 400#0000190100000000
(1.960000) powertrain 401#401901000000
(1.960000) powertrain 402#00000000
(1.980000) powertrain 400#0000190100000000
(1.980000) powertrain 401#401901000000
(1.980000) powertrain 402#00000000
(1.990081) powertrain 300#03601C0110270000
(2.000000) powertrain 400#0000190100000000
(2.000000) powertrain 401#401901000000
(2.000000) powertrain 402#00000000
(2.000000) powertrain 500#00000000
(2.000000) powertrain 501#D8040000003E
(2.000000) powertrain 610#0000000000000000
(2.000000) powertrain 200#0100000014000000
(2.000000) powertrain 201#0000010000000000
(2.000000) powertrain 202#00000000
(2.000300) powertrain 600#4019010000003213
(2.000300) powertrain 602#DC052C010200
(2.000300) powertrain 601#FA00FA00FA00
(2.000300) powertrain 603#1F0E010E6200
(2.020000) powertrain 400#0000190100000000
(2.020000) powertrain 401#401901000000
(2.020000) powertrain 402#00000000
(2.040000) powertrain 400#0000190100000000
(2.040000) powertrain 401#401901000000
(2.040000) powertrain 402#00000000
(2.060000) powertrain 400#0000190100000000
(2.060000) powertrain 401#401901000000
(2.060000) powertrain 402#00000000
(2.080000) powertrain 400#0000190100000000
(2.080000) powertrain 401#401901000000
(2.080000) powertrain 402#00000000
(2.100000) powertrain 400#0000190100000000
(2.100000) powertrain 401#401901000000
(2.100000) powertrain 402#00000000
(2.100000) powertrain 200#0100000015000000
(2.100000) powertrain 201#0000010000000000
(2.100000) powertrain 202#00000000
(2.100300) powertrain 600#4019010000003214
(2.100300) powertrain 602#DC052C010200
(2.120000) powertrain 400#0000190100000000
(2.120000) powertrain 401#401901000000
(2.120000) powertrain 402#00000000
(2.140000) powertrain 400#0000190100000000
(2.140000) powertrain 401#401901000000
(2.140000) powertrain 402#00000000
(2.160000) powertrain 400#0000190100000000
(2.160000) powertrain 401#401901000000
(2.160000) powertrain 402#00000000
(2.180000) powertrain 400#0000190100000000
(2.180000) powertrain 401#401901000000
(2.180000) powertrain 402#00000000
(2.190100) powertrain 300#03801F0110270000
(2.200000) powertrain 400#0000190100000000
(2.200000) powertrain 401#401901000000
(2.200000) powertrain 402#00000000
(2.200000) powertrain 500#00000000
(2.200000) powertrain 501#D8040000003E
(2.200000) powertrain 200#0100000016000000
(2.200000) powertrain 201#0000010000000000
(2.200000) powertrain 202#00000000
(2.200300) powertrain 600#4019010000003215
(2.200300) powertrain 602#DC052C010200
(2.220000) powertrain 400#0000190100000000
(2.220000) powertrain 401#401901000000
(2.220000) powertrain 402#00000000
(2.240000) powertrain 400#0000190100000000
(2.240000) powertrain 401#401901000000
(2.240000) powertrain 402#00000000
(2.250300) powertrain 601#FA00FA00FA00
(2.260000) powertrain 400#0000190100000000
(2.260000) powertrain 401#401901000000
(2.260000) powertrain 402#00000000
(2.280000) powertrain 400#0000190100000000
(2.280000) powertrain 401#401901000000
(2.280000) powertrain 402#00000000
(2.290100) powertrain 301#02A00000
(2.300000) powertrain 400#0000190100000000
(2.300000) powertrain 401#401901000000
(2.300000) powertrain 402#00000000
(2.300000) powertrain 200#0100000017000000
(2.300000) powertrain 201#0000010000000000
(2.300000) powertrain 202#00000000
(2.300300) powertrain 600#4019010000003216
(2.300300) powertrain 602#DC052C010200
(2.320000) powertrain 400#0000190100000000
(2.320000) powertrain 401#401901000000
(2.320000) powertrain 402#00000000
(2.340000) powertrain 400#0000190100000000
(2.340000) powertrain 401#401901000000
(2.340000) powertrain 402#00000000
(2.360000) powertrain 400#0000190100000000
(2.360000) powertrain 401#401901000000
(2.360000) powertrain 402#00000000
(2.380000) powertrain 400#0000190100000000
(2.380000) powertrain 401#401901000000
(2.380000) powertrain 402#00000000
(2.390100) powertrain 300#03A0220110270000
(2.400000) powertrain 400#0000190100000000
(2.400000) powertrain 401#401901000000
(2.400000) powertrain 402#00000000
(2.400000) powertrain 500#00000000
(2.400000) powertrain 501#D8040000003E
(2.400000) powertrain 200#0100000018000000
(2.400000) powertrain 201#0000010000000000
(2.400000) powertrain 202#00000000
(2.400300) powertrain 600#4019010000003217
(2.400300) powertrain 602#DC052C010200
(2.420000) powertrain 400#0000190100000000
(2.420000) powertrain 401#401901000000
(2.420000) powertrain 402#00000000
(2.440000) powertrain 400#0000190100000000
(2.440000) powertrain 401#401901000000
(2.440000) powertrain 402#00000000
(2.460000) powertrain 400#0000190100000000
(2.460000) powertrain 401#401901000000
(2.460000) powertrain 402#00000000
(2.480000) powertrain 400#0000190100000000
(2.480000) powertrain 401#401901000000
(2.480000) powertrain 402#00000000
(2.500000) powertrain 400#0000190100000000
(2.500000) powertrain 401#401901000000
(2.500000) powertrain 402#00000000
(2.500000) powertrain 200#0100000019000000
(2.500000) powertrain 201#0000010000000000
(2.500000) powertrain 202#00000000
(2.500300) powertrain 600#4019010000003218
(2.500300) powertrain 602#DC052C010200
(2.500300) powertrain 601#FA00FA00FA00
(2.500300) powertrain 603#1F0E010E6200
(2.520000) powertrain 400#0000190100000000
(2.520000) powertrain 401#401901000000
(2.520000) powertrain 402#00000000
(2.540000) powertrain 400#0000190100000000
(2.540000) powertrain 401#401901000000
(2.540000) powertrain 402#00000000
(2.560000) powertrain 400#0000190100000000
(2.560000) powertrain 401#401901000000
(2.560000) powertrain 402#00000000
(2.580000) powertrain 400#0000190100000000
(2.580000) powertrain 401#401901000000
(2.580000) powertrain 402#00000000
(2.590103) powertrain 300#03C0250110270000
(2.600000) powertrain 400#0000190100000000
(2.600000) powertrain 401#401901000000
(2.600000) powertrain 402#00000000
(2.600000) powertrain 500#00000000
(2.600000) powertrain 501#D8040000003E
(2.600000) powertrain 200#010000001A000000
(2.600000) powertrain 201#0000010000000000
(2.600000) powertrain 202#00000000
(2.600300) powertrain 600#4019010000003219
(2.600300) powertrain 602#DC052C010200
(2.620000) powertrain 400#0000190100000000
(2.620000) powertrain 401#401901000000
(2.620000) powertrain 402#00000000
(2.640000) powertrain 400#0000190100000000
(2.640000) powertrain 401#401901000000
(2.640000) powertrain 402#00000000
(2.660000) powertrain 400#0000190100000000
(2.660000) powertrain 401#401901000000
(2.660000) powertrain 402#00000000
(2.680000) powertrain 400#0000190100000000
(2.680000) powertrain 401#401901000000
(2.680000) powertrain 402#00000000
(2.700000) powertrain 400#0000190100000000
(2.700000) powertrain 401#401901000000
(2.700000) powertrain 402#00000000
(2.700000) powertrain 200#010000001B000000
(2.700000) powertrain 201#0000010000000000
(2.700000) powertrain 202#00000000
(2.700300) powertrain 600#401901000000321A
(2.700300) powertrain 602#DC052C010200
(2.720000) powertrain 400#0000190100000000
(2.720000) powertrain 401#401901000000
(2.720000) powertrain 402#00000000
(2.740000) powertrain 400#0000190100000000
(2.740000) powertrain 401#401901000000
(2.740000) powertrain 402#00000000
(2.750300) powertrain 601#FA00FA00FA00
(2.760000) powertrain 400#0000190100000000
(2.760000) powertrain 401#401901000000
(2.760000) powertrain 402#00000000
(2.780000) powertrain 400#0000190100000000
(2.780000) powertrain 401#401901000000
(2.780000) powertrain 402#00000000
(2.790111) powertrain 300#03E0280110270000
(2.790111) powertrain 301#02A00000
(2.800000) powertrain 400#0000190100000000
(2.800000) powertrain 401#401901000000
(2.800000) powertrain 402#00000000
(2.800000) powertrain 500#00000000
(2.800000) powertrain 501#D8040000003E
(2.800000) powertrain 200#010000001C000000
(2.800000) powertrain 201#0000010000000000
(2.800000) powertrain 202#00000000
(2.800300) powertrain 600#401901000000321B
(2.800300) powertrain 602#DC052C010200
(2.820000) powertrain 400#0000190100000000
(2.820000) powertrain 401#401901000000
(2.820000) powertrain 402#00000000
(2.840000) powertrain 400#0000190100000000
(2.840000) powertrain 401#401901000000
(2.840000) powertrain 402#00000000
(2.860000) powertrain 400#0000190100000000
(2.860000) powertrain 401#401901000000
(2.860000) powertrain 402#00000000
(2.880000) powertrain 400#0000190100000000
(2.880000) powertrain 401#401901000000
(2.880000) powertrain 402#00000000
(2.900000) powertrain 400#0000190100000000
(2.900000) powertrain 401#401901000000
(2.900000) powertrain 402#00000000
(2.900000) powertrain 200#010000001D000000
(2.900000) powertrain 201#0000010000000000
(2.900000) powertrain 202#00000000
(2.900300) powertrain 600#401901000000321C
(2.900300) powertrain 602#DC052C010200
(2.920000) powertrain 400#0000190100000000
(2.920000) powertrain 401#401901000000
(2.920000) powertrain 402#00000000
(2.940000) powertrain 400#0000190100000000
(2.940000) powertrain 401#401901000000
(2.940000) powertrain 402#00000000
(2.960000) powertrain 400#0000190100000000
(2.960000) powertrain 401#401901000000
(2.960000) powertrain 402#00000000
(2.980000) powertrain 400#0000190100000000
(2.980000) powertrain 401#401901000000
(2.980000) powertrain 402#00000000
(2.990119) powertrain 300#03002C0110270000
(3.000000) powertrain 400#0000190100000000
(3.000000) powertrain 401#401901000000
(3.000000) powertrain 402#00000000
(3.000000) powertrain 500#00000000
(3.000000) powertrain 501#D8040000003E
(3.000000) powertrain 610#0000000000000000
(3.000000) powertrain 200#010000001E000000
(3.000000) powertrain 201#0000010000000000
(3.000000) powertrain 202#00000000
(3.000300) powertrain 600#401901000000321D
(3.000300) powertrain 602#DC052C010200
(3.000300) powertrain 601#FA00FA00FA00
(3.000300) powertrain 603#1F0E010E6200
(3.020000) powertrain 400#0000190100000000
(3.020000) powertrain 401#401901000000
(3.020000) powertrain 402#00000000
(3.040000) powertrain 400#0000190100000000
(3.040000) powertrain 401#401901000000
(3.040000) powertrain 402#00000000
(3.060000) powertrain 400#0000190100000000
(3.060000) powertrain 401#401901000000
(3.060000) powertrain 402#00000000
(3.080000) powertrain 400#0000190100000000
(3.080000) powertrain 401#401901000000
(3.080000) powertrain 402#00000000
(3.100000) powertrain 400#0000190100000000
(3.100000) powertrain 401#401901000000
(3.100000) powertrain 402#00000000
(3.100000) powertrain 200#010000001F000000
(3.100000) powertrain 201#0000010000000000
(3.100000) powertrain 202#00000000
(3.100300) powertrain 600#401901000000321E
(3.100300) powertrain 602#DC052C010200
(3.120000) powertrain 400#0000190100000000
(3.120000) powertrain 401#401901000000
(3.120000) powertrain 402#00000000
(3.140000) powertrain 400#0000190100000000
(3.140000) powertrain 401#401901000000
(3.140000) powertrain 402#00000000
(3.160000) powertrain 400#0000190100000000
(3.160000) powertrain 401#401901000000
(3.160000) powertrain 402#00000000
(3.180000) powertrain 400#0000190100000000
(3.180000) powertrain 401#401901000000
(3.180000) powertrain 402#00000000
(3.190126) powertrain 300#03202F0110270000
(3.200000) powertrain 400#0000190100000000
(3.200000) powertrain 401#401901000000
(3.200000) powertrain 402#00000000
(3.200000) powertrain 500#00000000
(3.200000) powertrain 501#D8040000003E
(3.200000) powertrain 200#0100000020000000
(3.200000) powertrain 201#0000010000000000
(3.200000) powertrain 202#00000000
(3.200300) powertrain 600#401901000000321F
(3.200300) powertrain 602#DC052C010200
(3.220000) powertrain 400#0000190100000000
(3.220000) powertrain 401#401901000000
(3.220000) powertrain 402#00000000
(3.240000) powertrain 400#0000190100000000
(3.240000) powertrain 401#401901000000
(3.240000) powertrain 402#00000000
(3.250300) powertrain 601#FA00FA00FA00
(3.260000) powertrain 400#0000190100000000
(3.260000) powertrain 401#401901000000
(3.260000) powertrain 402#00000000
(3.280000) powertrain 400#0000190100000000
(3.280000) powertrain 401#401901000000
(3.280000) powertrain 402#00000000
(3.290130) powertrain 301#02A00000
(3.300000) powertrain 400#0000190100000000
(3.300000) powertrain 401#401901000000
(3.300000) powertrain 402#00000000
(3.300000) powertrain 200#0100000021000000
(3.300000) powertrain 201#0000010000000000
(3.300000) powertrain 202#00000000
(3.300300) powertrain 600#4019010000003220
(3.300300) powertrain 602#DC052C010200
(3.320000) powertrain 400#0000190100000000
(3.320000) powertrain 401#401901000000
(3.320000) powertrain 402#00000000
(3.340000) powertrain 400#0000190100000000
(3.340000) powertrain 401#401901000000
(3.340000) powertrain 402#00000000
(3.360000) powertrain 400#0000190100000000
(3.360000) powertrain 401#401901000000
(3.360000) powertrain 402#00000000
(3.380000) powertrain 400#0000190100000000
(3.380000) powertrain 401#401901000000
(3.380000) powertrain 402#00000000
(3.390134) powertrain 300#0340320110270000
(3.400000) powertrain 400#0000190100000000
(3.400000) powertrain 401#401901000000
(3.400000) powertrain 402#00000000
(3.400000) powertrain 500#00000000
(3.400000) powertrain 501#D8040000003E
(3.400000) powertrain 200#0100000022000000
(3.400000) powertrain 201#0000010000000000
(3.400000) powertrain 202#00000000
(3.400300) powertrain 600#4019010000003221
(3.400300) powertrain 602#DC052C010200
(3.420000) powertrain 400#0000190100000000
(3.420000) powertrain 401#401901000000
(3.420000) powertrain 402#00000000
(3.440000) powertrain 400#0000190100000000
(3.440000) powertrain 401#401901000000
(3.440000) powertrain 402#00000000
(3.460000) powertrain 400#0000190100000000
(3.460000) powertrain 401#401901000000
(3.460000) powertrain 402#00000000
(3.480000) powertrain 400#0000190100000000
(3.480000) powertrain 401#401901000000
(3.480000) powertrain 402#00000000
(3.500000) powertrain 400#0000190100000000
(3.500000) powertrain 401#401901000000
(3.500000) powertrain 402#00000000
